date Sat May 09 10:38:42.788 am 2026
base hex  timestamps absolute
internal events logged
// version 8.5.0
Begin Triggerblock Sat May 09 10:38:42.788 am 2026
   0.000000 Start of measurement
   0.000000 1  186             Rx   d 7 00 00 32 03 20 00 20   Length = 0 BitCount = 0 ID = 390
   0.000000 1  18a             Rx   d 6 32 00 00 06 94 00   Length = 0 BitCount = 0 ID = 394
   0.000000 1  189             Rx   d 8 32 03 20 32 00 C8 00 00   Length = 0 BitCount = 0 ID = 393
   0.000000 1  1f6             Rx   d 8 1F 00 40 00 00 FF FF 00   Length = 0 BitCount = 0 ID = 502
   0.000000 1  217             Rx   d 8 FF FF 80 00 00 00 00 88   Length = 0 BitCount = 0 ID = 535
   0.000000 1  2a9             Rx   d 1 FF   Length = 0 BitCount = 0 ID = 681
   0.000000 1  2c6             Rx   d 6 00 00 00 00 00 00   Length = 0 BitCount = 0 ID = 710
   0.017158 1  186             Rx   d 7 00 00 32 03 20 00 20   Length = 0 BitCount = 0 ID = 390
   0.017158 1  18a             Rx   d 6 32 00 00 06 6A 00   Length = 0 BitCount = 0 ID = 394
   0.017158 1  189             Rx   d 8 32 03 20 32 00 C8 00 00   Length = 0 BitCount = 0 ID = 393
   0.017158 1  1f6             Rx   d 8 1F 00 40 00 00 FF FF 00   Length = 0 BitCount = 0 ID = 502
   0.032081 1  186             Rx   d 7 00 00 32 03 20 00 28   Length = 0 BitCount = 0 ID = 390
   0.032081 1  18a             Rx   d 6 32 00 00 06 E6 00   Length = 0 BitCount = 0 ID = 394
   0.032081 1  189             Rx   d 8 32 03 20 32 00 CE 00 00   Length = 0 BitCount = 0 ID = 393
   0.032081 1  1f6             Rx   d 8 1F 00 40 00 00 FF FF 00   Length = 0 BitCount = 0 ID = 502
   0.032081 1  217             Rx   d 8 FF FF 80 00 00 00 00 88   Length = 0 BitCount = 0 ID = 535
   0.032081 1  2a9             Rx   d 1 FF   Length = 0 BitCount = 0 ID = 681
   0.032081 1  2c6             Rx   d 6 00 00 08 2D 8F E0   Length = 0 BitCount = 0 ID = 710
   0.032081 1  186             Rx   d 7 00 00 32 03 20 00 28   Length = 0 BitCount = 0 ID = 390
   0.032081 1  18a             Rx   d 6 32 00 00 06 E6 00   Length = 0 BitCount = 0 ID = 394
   0.032081 1  189             Rx   d 8 32 03 20 32 00 CE 00 00   Length = 0 BitCount = 0 ID = 393
   0.032081 1  1f6             Rx   d 8 1F 00 40 00 00 FF FF 00   Length = 0 BitCount = 0 ID = 502
   0.032081 1  186             Rx   d 7 00 00 32 03 20 00 28   Length = 0 BitCount = 0 ID = 390
   0.032081 1  18a             Rx   d 6 32 00 00 06 E6 00   Length = 0 BitCount = 0 ID = 394
   0.032081 1  189             Rx   d 8 32 03 20 32 00 C8 00 00   Length = 0 BitCount = 0 ID = 393
   0.032081 1  1f6             Rx   d 8 1F 00 40 00 00 FF FF 00   Length = 0 BitCount = 0 ID = 502
   0.032081 1  217             Rx   d 8 FF FF 80 00 00 00 00 88   Length = 0 BitCount = 0 ID = 535
   0.032081 1  2a9             Rx   d 1 FF   Length = 0 BitCount = 0 ID = 681
   0.032081 1  2c6             Rx   d 6 00 00 08 2D 8F E0   Length = 0 BitCount = 0 ID = 710
   0.074449 1  186             Rx   d 7 00 00 32 03 20 00 28   Length = 0 BitCount = 0 ID = 390
   0.074449 1  18a             Rx   d 6 32 00 00 06 E6 00   Length = 0 BitCount = 0 ID = 394
   0.074449 1  189             Rx   d 8 32 03 20 32 00 C8 00 00   Length = 0 BitCount = 0 ID = 393
   0.074449 1  1f6             Rx   d 8 1F 00 40 00 00 FF FF 00   Length = 0 BitCount = 0 ID = 502
   0.074449 1  186             Rx   d 7 00 00 32 03 20 00 28   Length = 0 BitCount = 0 ID = 390
   0.074449 1  18a             Rx   d 6 32 00 00 06 E6 00   Length = 0 BitCount = 0 ID = 394
   0.074449 1  189             Rx   d 8 32 03 20 32 00 C8 00 00   Length = 0 BitCount = 0 ID = 393
   0.074449 1  1f6             Rx   d 8 1F 00 40 00 00 FF FF 00   Length = 0 BitCount = 0 ID = 502
   0.074449 1  217             Rx   d 8 FF FF 80 00 00 00 00 88   Length = 0 BitCount = 0 ID = 535
   0.074449 1  2a9             Rx   d 1 FF   Length = 0 BitCount = 0 ID = 681
   0.074449 1  2c6             Rx   d 6 00 00 08 2D 8F E0   Length = 0 BitCount = 0 ID = 710
   0.074449 1  186             Rx   d 7 00 00 32 03 20 00 28   Length = 0 BitCount = 0 ID = 390
   0.074449 1  18a             Rx   d 6 32 00 00 06 E6 00   Length = 0 BitCount = 0 ID = 394
   0.074449 1  189             Rx   d 8 32 03 20 32 00 C8 00 00   Length = 0 BitCount = 0 ID = 393
   0.074449 1  1f6             Rx   d 8 1F 00 40 00 00 FF FF 00   Length = 0 BitCount = 0 ID = 502
   0.074449 1  5da             Rx   d 8 5E 67 00 FF 00 FF FF 00   Length = 0 BitCount = 0 ID = 1498
   0.074449 1  65c             Rx   d 3 C8 FF 00   Length = 0 BitCount = 0 ID = 1628
   0.074449 1  41d             Rx   d 4 F8 FE FF 00   Length = 0 BitCount = 0 ID = 1053
   0.074449 1  36e             Rx   d 4 03 F1 19 99   Length = 0 BitCount = 0 ID = 878
   0.074449 1  511             Rx   d 7 05 D4 DC 70 C0 09 5D   Length = 0 BitCount = 0 ID = 1297
   0.074449 1  66a             Rx   d 8 08 FF 00 00 00 00 00 00   Length = 0 BitCount = 0 ID = 1642
   0.074449 1  648             Rx   d 8 FF FF FC 00 00 7D FC 18   Length = 0 BitCount = 0 ID = 1608
   0.074449 1  41a             Rx   d 4 00 03 00 FF   Length = 0 BitCount = 0 ID = 1050
   0.074449 1  186             Rx   d 7 00 00 32 03 20 00 28   Length = 0 BitCount = 0 ID = 390
   0.074449 1  18a             Rx   d 6 32 00 00 06 E6 00   Length = 0 BitCount = 0 ID = 394
   0.074449 1  189             Rx   d 8 32 03 20 32 00 C8 00 00   Length = 0 BitCount = 0 ID = 393
   0.074449 1  1f6             Rx   d 8 1F 00 40 00 00 FF FF 00   Length = 0 BitCount = 0 ID = 502
   0.074449 1  217             Rx   d 8 FF FF 80 00 00 00 00 88   Length = 0 BitCount = 0 ID = 535
   0.074449 1  2a9             Rx   d 1 FF   Length = 0 BitCount = 0 ID = 681
   0.074449 1  2c6             Rx   d 6 00 00 08 2D 8F E0   Length = 0 BitCount = 0 ID = 710
   0.074449 1  186             Rx   d 7 00 00 32 03 20 00 28   Length = 0 BitCount = 0 ID = 390
   0.074449 1  18a             Rx   d 6 32 00 00 06 E6 00   Length = 0 BitCount = 0 ID = 394
   0.074449 1  189             Rx   d 8 32 03 20 32 00 C8 00 00   Length = 0 BitCount = 0 ID = 393
   0.074449 1  1f6             Rx   d 8 1F 00 40 00 00 FF FF 00   Length = 0 BitCount = 0 ID = 502
   0.115809 1  186             Rx   d 7 00 00 32 03 20 00 28   Length = 0 BitCount = 0 ID = 390
   0.115809 1  18a             Rx   d 6 32 00 00 06 E6 00   Length = 0 BitCount = 0 ID = 394
   0.115809 1  189             Rx   d 8 32 03 20 32 00 C8 00 00   Length = 0 BitCount = 0 ID = 393
   0.115809 1  1f6             Rx   d 8 1F 00 40 00 00 FF FF 00   Length = 0 BitCount = 0 ID = 502
   0.115809 1  217             Rx   d 8 FF FF 80 00 00 00 00 88   Length = 0 BitCount = 0 ID = 535
   0.115809 1  2a9             Rx   d 1 FF   Length = 0 BitCount = 0 ID = 681
   0.115809 1  2c6             Rx   d 6 00 00 08 3B AE 50   Length = 0 BitCount = 0 ID = 710
   0.115809 1  186             Rx   d 7 00 00 32 03 20 00 28   Length = 0 BitCount = 0 ID = 390
   0.115809 1  18a             Rx   d 6 32 00 00 06 E6 00   Length = 0 BitCount = 0 ID = 394
   0.115809 1  189             Rx   d 8 32 03 20 32 00 C8 00 00   Length = 0 BitCount = 0 ID = 393
   0.115809 1  1f6             Rx   d 8 1F 00 40 00 00 FF FF 00   Length = 0 BitCount = 0 ID = 502
   0.115809 1  186             Rx   d 7 00 00 32 03 20 00 28   Length = 0 BitCount = 0 ID = 390
   0.115809 1  18a             Rx   d 6 32 00 00 06 E6 00   Length = 0 BitCount = 0 ID = 394
   0.115809 1  189             Rx   d 8 32 03 20 32 00 C8 00 00   Length = 0 BitCount = 0 ID = 393
   0.115809 1  1f6             Rx   d 8 1F 00 40 00 00 FF FF 00   Length = 0 BitCount = 0 ID = 502
   0.115809 1  217             Rx   d 8 FF FF 80 00 00 00 00 88   Length = 0 BitCount = 0 ID = 535
   0.115809 1  2a9             Rx   d 1 FF   Length = 0 BitCount = 0 ID = 681
   0.115809 1  2c6             Rx   d 6 00 00 08 3B AE 50   Length = 0 BitCount = 0 ID = 710
   0.115809 1  186             Rx   d 7 00 00 32 03 20 00 28   Length = 0 BitCount = 0 ID = 390
   0.115809 1  18a             Rx   d 6 32 00 00 06 E6 00   Length = 0 BitCount = 0 ID = 394
   0.115809 1  189             Rx   d 8 32 03 20 32 00 C8 00 00   Length = 0 BitCount = 0 ID = 393
   0.115809 1  1f6             Rx   d 8 1F 00 40 00 00 FF FF 00   Length = 0 BitCount = 0 ID = 502
   0.157835 1  186             Rx   d 7 00 00 32 03 20 00 28   Length = 0 BitCount = 0 ID = 390
   0.157835 1  18a             Rx   d 6 32 00 00 06 E6 00   Length = 0 BitCount = 0 ID = 394
   0.157835 1  189             Rx   d 8 32 03 20 32 00 C8 00 00   Length = 0 BitCount = 0 ID = 393
   0.157835 1  1f6             Rx   d 8 1F 00 40 00 00 FF FF 00   Length = 0 BitCount = 0 ID = 502
   0.157835 1  217             Rx   d 8 FF FF 80 00 00 00 00 88   Length = 0 BitCount = 0 ID = 535
   0.157835 1  2a9             Rx   d 1 FF   Length = 0 BitCount = 0 ID = 681
   0.157835 1  2c6             Rx   d 6 00 00 08 3B AE 50   Length = 0 BitCount = 0 ID = 710
   0.157835 1  186             Rx   d 7 00 00 32 03 20 00 28   Length = 0 BitCount = 0 ID = 390
   0.157835 1  18a             Rx   d 6 32 00 00 06 E6 00   Length = 0 BitCount = 0 ID = 394
   0.157835 1  189             Rx   d 8 32 03 20 32 00 C8 00 00   Length = 0 BitCount = 0 ID = 393
   0.157835 1  1f6             Rx   d 8 1F 00 40 00 00 FF FF 00   Length = 0 BitCount = 0 ID = 502
   0.157835 1  186             Rx   d 7 00 00 32 03 20 00 28   Length = 0 BitCount = 0 ID = 390
   0.157835 1  18a             Rx   d 6 32 00 00 06 E6 00   Length = 0 BitCount = 0 ID = 394
   0.157835 1  189             Rx   d 8 32 03 20 32 00 C8 00 00   Length = 0 BitCount = 0 ID = 393
   0.157835 1  1f6             Rx   d 8 1F 00 40 00 00 FF FF 00   Length = 0 BitCount = 0 ID = 502
   0.157835 1  217             Rx   d 8 FF FF 80 00 00 00 00 88   Length = 0 BitCount = 0 ID = 535
   0.157835 1  2a9             Rx   d 1 FF   Length = 0 BitCount = 0 ID = 681
   0.157835 1  2c6             Rx   d 6 00 00 08 3B AE 50   Length = 0 BitCount = 0 ID = 710
   0.157835 1  186             Rx   d 7 00 00 32 03 20 00 28   Length = 0 BitCount = 0 ID = 390
   0.157835 1  18a             Rx   d 6 32 00 00 06 E6 00   Length = 0 BitCount = 0 ID = 394
   0.157835 1  189             Rx   d 8 32 03 20 32 00 C8 00 00   Length = 0 BitCount = 0 ID = 393
   0.157835 1  1f6             Rx   d 8 1F 00 40 00 00 FF FF 00   Length = 0 BitCount = 0 ID = 502
   0.157835 1  5da             Rx   d 8 5E 73 00 FF C1 FF FF 00   Length = 0 BitCount = 0 ID = 1498
   0.157835 1  65c             Rx   d 3 C8 FF 00   Length = 0 BitCount = 0 ID = 1628
   0.157835 1  41d             Rx   d 4 F8 FE FF 00   Length = 0 BitCount = 0 ID = 1053
   0.157835 1  36e             Rx   d 4 03 F1 19 99   Length = 0 BitCount = 0 ID = 878
   0.157835 1  511             Rx   d 7 05 D4 DC 70 C0 09 5D   Length = 0 BitCount = 0 ID = 1297
   0.157835 1  66a             Rx   d 8 08 FF 00 00 00 00 00 00   Length = 0 BitCount = 0 ID = 1642
   0.157835 1  648             Rx   d 8 FF FF FC 00 00 7D FC 18   Length = 0 BitCount = 0 ID = 1608
   0.157835 1  41a             Rx   d 4 00 03 80 FF   Length = 0 BitCount = 0 ID = 1050
   0.193343 1  186             Rx   d 7 00 00 32 03 20 00 28   Length = 0 BitCount = 0 ID = 390
   0.193343 1  18a             Rx   d 6 32 00 00 06 E6 00   Length = 0 BitCount = 0 ID = 394
   0.193343 1  189             Rx   d 8 32 03 20 32 00 C8 00 00   Length = 0 BitCount = 0 ID = 393
   0.193343 1  1f6             Rx   d 8 1F 00 40 00 00 FF FF 00   Length = 0 BitCount = 0 ID = 502
   0.193343 1  217             Rx   d 8 FF FF 80 00 00 00 00 88   Length = 0 BitCount = 0 ID = 535
   0.193343 1  2a9             Rx   d 1 FF   Length = 0 BitCount = 0 ID = 681
   0.193343 1  2c6             Rx   d 6 00 00 08 3B AE 50   Length = 0 BitCount = 0 ID = 710
   0.193343 1  186             Rx   d 7 00 00 32 03 20 00 28   Length = 0 BitCount = 0 ID = 390
   0.193343 1  18a             Rx   d 6 32 00 00 06 E6 00   Length = 0 BitCount = 0 ID = 394
   0.193343 1  189             Rx   d 8 32 03 20 32 00 C8 00 00   Length = 0 BitCount = 0 ID = 393
   0.193343 1  1f6             Rx   d 8 1F 00 40 00 00 FF FF 00   Length = 0 BitCount = 0 ID = 502
   0.193343 1  186             Rx   d 7 00 00 32 03 20 00 28   Length = 0 BitCount = 0 ID = 390
   0.193343 1  18a             Rx   d 6 32 00 00 06 E6 00   Length = 0 BitCount = 0 ID = 394
   0.193343 1  189             Rx   d 8 32 03 20 32 00 C8 00 00   Length = 0 BitCount = 0 ID = 393
   0.193343 1  1f6             Rx   d 8 1F 00 40 00 00 FF FF 00   Length = 0 BitCount = 0 ID = 502
   0.193343 1  217             Rx   d 8 FF FF 80 00 00 00 00 88   Length = 0 BitCount = 0 ID = 535
   0.193343 1  2a9             Rx   d 1 FF   Length = 0 BitCount = 0 ID = 681
   0.193343 1  2c6             Rx   d 6 00 00 08 3B AE 50   Length = 0 BitCount = 0 ID = 710
   0.196914 1  186             Rx   d 7 00 00 32 03 20 00 28   Length = 0 BitCount = 0 ID = 390
   0.196914 1  18a             Rx   d 6 32 00 00 06 E6 00   Length = 0 BitCount = 0 ID = 394
   0.196914 1  189             Rx   d 8 32 03 20 32 00 C8 00 00   Length = 0 BitCount = 0 ID = 393
   0.196914 1  1f6             Rx   d 8 1F 00 40 00 00 FF FF 00   Length = 0 BitCount = 0 ID = 502
   0.206908 1  186             Rx   d 7 00 00 32 03 20 00 28   Length = 0 BitCount = 0 ID = 390
   0.206908 1  18a             Rx   d 6 32 00 00 06 E6 00   Length = 0 BitCount = 0 ID = 394
   0.206908 1  189             Rx   d 8 32 03 20 32 00 C8 00 00   Length = 0 BitCount = 0 ID = 393
   0.206908 1  1f6             Rx   d 8 1F 00 40 00 00 FF FF 00   Length = 0 BitCount = 0 ID = 502
   0.206908 1  217             Rx   d 8 FF FF 80 00 00 00 00 88   Length = 0 BitCount = 0 ID = 535
   0.206908 1  2a9             Rx   d 1 FF   Length = 0 BitCount = 0 ID = 681
   0.206908 1  2c6             Rx   d 6 00 00 08 3B AE 50   Length = 0 BitCount = 0 ID = 710
   0.216902 1  186             Rx   d 7 00 00 32 03 20 00 28   Length = 0 BitCount = 0 ID = 390
   0.216902 1  18a             Rx   d 6 32 00 00 06 E6 00   Length = 0 BitCount = 0 ID = 394
   0.216902 1  189             Rx   d 8 32 03 20 32 00 C8 00 00   Length = 0 BitCount = 0 ID = 393
   0.216902 1  1f6             Rx   d 8 1F 00 40 00 00 FF FF 00   Length = 0 BitCount = 0 ID = 502
   0.226896 1  186             Rx   d 7 00 00 32 03 20 00 28   Length = 0 BitCount = 0 ID = 390
   0.226896 1  18a             Rx   d 6 32 00 00 06 E6 00   Length = 0 BitCount = 0 ID = 394
   0.226896 1  189             Rx   d 8 32 03 20 32 00 C8 00 00   Length = 0 BitCount = 0 ID = 393
   0.226896 1  1f6             Rx   d 8 1F 00 40 00 00 FF FF 00   Length = 0 BitCount = 0 ID = 502
   0.226896 1  217             Rx   d 8 FF FF 80 00 00 00 00 88   Length = 0 BitCount = 0 ID = 535
   0.226896 1  2a9             Rx   d 1 FF   Length = 0 BitCount = 0 ID = 681
   0.226896 1  2c6             Rx   d 6 00 00 08 3B AE 50   Length = 0 BitCount = 0 ID = 710
   0.236892 1  186             Rx   d 7 00 00 32 03 20 00 28   Length = 0 BitCount = 0 ID = 390
   0.236892 1  18a             Rx   d 6 32 00 00 06 E6 00   Length = 0 BitCount = 0 ID = 394
   0.236892 1  189             Rx   d 8 32 03 20 32 00 C8 00 00   Length = 0 BitCount = 0 ID = 393
   0.236892 1  1f6             Rx   d 8 1F 00 40 00 00 FF FF 00   Length = 0 BitCount = 0 ID = 502
   0.246885 1  186             Rx   d 7 00 00 32 03 20 00 38   Length = 0 BitCount = 0 ID = 390
   0.246885 1  18a             Rx   d 6 32 00 00 06 E6 00   Length = 0 BitCount = 0 ID = 394
   0.246885 1  189             Rx   d 8 32 03 20 32 00 C8 00 00   Length = 0 BitCount = 0 ID = 393
   0.246885 1  1f6             Rx   d 8 1F 00 40 00 00 FF FF 00   Length = 0 BitCount = 0 ID = 502
   0.246885 1  217             Rx   d 8 FF FF 80 00 00 00 00 88   Length = 0 BitCount = 0 ID = 535
   0.246885 1  2a9             Rx   d 1 FF   Length = 0 BitCount = 0 ID = 681
   0.246885 1  2c6             Rx   d 6 00 00 08 3B AE 50   Length = 0 BitCount = 0 ID = 710
   0.278589 1  186             Rx   d 7 00 00 32 03 20 00 38   Length = 0 BitCount = 0 ID = 390
   0.278589 1  18a             Rx   d 6 32 00 00 06 E6 00   Length = 0 BitCount = 0 ID = 394
   0.278589 1  189             Rx   d 8 32 03 20 32 00 C8 00 00   Length = 0 BitCount = 0 ID = 393
   0.278589 1  1f6             Rx   d 8 1F 00 40 00 00 FF FF 00   Length = 0 BitCount = 0 ID = 502
   0.278589 1  5da             Rx   d 8 5E 74 00 FF C1 FF FF 00   Length = 0 BitCount = 0 ID = 1498
   0.278589 1  65c             Rx   d 3 C8 FF 00   Length = 0 BitCount = 0 ID = 1628
   0.278589 1  41d             Rx   d 4 F8 FE FF 00   Length = 0 BitCount = 0 ID = 1053
   0.278589 1  36e             Rx   d 4 03 F1 19 99   Length = 0 BitCount = 0 ID = 878
   0.278589 1  511             Rx   d 7 05 D4 DC 70 C0 09 5D   Length = 0 BitCount = 0 ID = 1297
   0.278589 1  66a             Rx   d 8 08 FF 00 00 00 00 00 00   Length = 0 BitCount = 0 ID = 1642
   0.278589 1  648             Rx   d 8 FF FF FC 00 00 7D FC 18   Length = 0 BitCount = 0 ID = 1608
   0.278589 1  41a             Rx   d 4 00 03 00 FF   Length = 0 BitCount = 0 ID = 1050
   0.294211 1  186             Rx   d 7 00 00 32 03 20 00 38   Length = 0 BitCount = 0 ID = 390
   0.294211 1  18a             Rx   d 6 32 00 00 06 E6 00   Length = 0 BitCount = 0 ID = 394
   0.294211 1  189             Rx   d 8 32 03 20 32 00 C8 00 00   Length = 0 BitCount = 0 ID = 393
   0.294211 1  1f6             Rx   d 8 1F 00 40 00 00 FF FF 00   Length = 0 BitCount = 0 ID = 502
   0.294211 1  217             Rx   d 8 FF FF 80 00 00 00 00 88   Length = 0 BitCount = 0 ID = 535
   0.294211 1  2a9             Rx   d 1 FF   Length = 0 BitCount = 0 ID = 681
   0.294211 1  2c6             Rx   d 6 00 00 08 3B AE 50   Length = 0 BitCount = 0 ID = 710
   0.294211 1  186             Rx   d 7 00 00 32 03 20 00 38   Length = 0 BitCount = 0 ID = 390
   0.294211 1  18a             Rx   d 6 32 00 00 06 E6 00   Length = 0 BitCount = 0 ID = 394
   0.294211 1  189             Rx   d 8 32 03 20 32 00 C8 00 00   Length = 0 BitCount = 0 ID = 393
   0.294211 1  1f6             Rx   d 8 1F 00 40 00 00 FF FF 00   Length = 0 BitCount = 0 ID = 502
   0.294211 1  186             Rx   d 7 00 00 32 03 20 00 38   Length = 0 BitCount = 0 ID = 390
   0.294211 1  18a             Rx   d 6 32 00 00 06 E6 00   Length = 0 BitCount = 0 ID = 394
   0.294211 1  189             Rx   d 8 32 03 20 32 00 C8 00 00   Length = 0 BitCount = 0 ID = 393
   0.294211 1  1f6             Rx   d 8 1F 00 40 00 00 FF FF 00   Length = 0 BitCount = 0 ID = 502
   0.294211 1  217             Rx   d 8 FF FF 80 00 00 00 00 88   Length = 0 BitCount = 0 ID = 535
   0.294211 1  2a9             Rx   d 1 FF   Length = 0 BitCount = 0 ID = 681
   0.294211 1  2c6             Rx   d 6 00 00 08 3B AE 50   Length = 0 BitCount = 0 ID = 710
   0.294211 1  186             Rx   d 7 00 00 32 03 20 00 38   Length = 0 BitCount = 0 ID = 390
   0.294211 1  18a             Rx   d 6 32 00 00 06 E6 00   Length = 0 BitCount = 0 ID = 394
   0.294211 1  189             Rx   d 8 32 03 20 32 00 C8 00 00   Length = 0 BitCount = 0 ID = 393
   0.294211 1  1f6             Rx   d 8 1F 00 40 00 00 FF FF 00   Length = 0 BitCount = 0 ID = 502
   0.328926 1  186             Rx   d 7 00 00 32 03 20 00 38   Length = 0 BitCount = 0 ID = 390
   0.328926 1  18a             Rx   d 6 32 00 00 06 E6 00   Length = 0 BitCount = 0 ID = 394
   0.328926 1  189             Rx   d 8 32 03 20 32 00 C8 00 00   Length = 0 BitCount = 0 ID = 393
   0.328926 1  1f6             Rx   d 8 1F 00 40 00 00 FF FF 00   Length = 0 BitCount = 0 ID = 502
   0.328926 1  217             Rx   d 8 FF FF 80 00 00 00 00 88   Length = 0 BitCount = 0 ID = 535
   0.328926 1  2a9             Rx   d 1 FF   Length = 0 BitCount = 0 ID = 681
   0.328926 1  2c6             Rx   d 6 00 00 08 3B AE 50   Length = 0 BitCount = 0 ID = 710
   0.328926 1  186             Rx   d 7 00 00 32 03 20 00 38   Length = 0 BitCount = 0 ID = 390
   0.328926 1  18a             Rx   d 6 32 00 00 06 E6 00   Length = 0 BitCount = 0 ID = 394
   0.328926 1  189             Rx   d 8 32 03 20 32 00 C8 00 00   Length = 0 BitCount = 0 ID = 393
   0.328926 1  1f6             Rx   d 8 1F 00 40 00 00 FF FF 00   Length = 0 BitCount = 0 ID = 502
   0.328926 1  186             Rx   d 7 00 00 32 03 20 00 38   Length = 0 BitCount = 0 ID = 390
   0.328926 1  18a             Rx   d 6 32 00 00 06 E6 00   Length = 0 BitCount = 0 ID = 394
   0.328926 1  189             Rx   d 8 32 03 20 32 00 C8 00 00   Length = 0 BitCount = 0 ID = 393
   0.328926 1  1f6             Rx   d 8 1F 00 40 00 00 FF FF 00   Length = 0 BitCount = 0 ID = 502
   0.328926 1  217             Rx   d 8 FF FF 80 00 00 00 00 88   Length = 0 BitCount = 0 ID = 535
   0.328926 1  2a9             Rx   d 1 FF   Length = 0 BitCount = 0 ID = 681
   0.328926 1  2c6             Rx   d 6 00 00 08 3B AE 50   Length = 0 BitCount = 0 ID = 710
   0.366295 1  186             Rx   d 7 00 00 32 03 20 00 38   Length = 0 BitCount = 0 ID = 390
   0.366295 1  18a             Rx   d 6 32 00 00 06 E6 00   Length = 0 BitCount = 0 ID = 394
   0.366295 1  189             Rx   d 8 32 03 20 32 00 C8 00 00   Length = 0 BitCount = 0 ID = 393
   0.366295 1  1f6             Rx   d 8 1F 00 40 00 00 FF FF 00   Length = 0 BitCount = 0 ID = 502
   0.366295 1  186             Rx   d 7 00 00 32 03 20 00 38   Length = 0 BitCount = 0 ID = 390
   0.366295 1  18a             Rx   d 6 32 00 00 06 E6 00   Length = 0 BitCount = 0 ID = 394
   0.366295 1  189             Rx   d 8 32 03 20 32 00 C8 00 00   Length = 0 BitCount = 0 ID = 393
   0.366295 1  1f6             Rx   d 8 1F 00 40 00 00 FF FF 00   Length = 0 BitCount = 0 ID = 502
   0.366295 1  217             Rx   d 8 FF FF 80 00 00 00 00 88   Length = 0 BitCount = 0 ID = 535
   0.366295 1  2a9             Rx   d 1 FF   Length = 0 BitCount = 0 ID = 681
   0.366295 1  2c6             Rx   d 6 00 00 08 3B AE 50   Length = 0 BitCount = 0 ID = 710
   0.366295 1  186             Rx   d 7 00 00 32 03 20 00 38   Length = 0 BitCount = 0 ID = 390
   0.366295 1  18a             Rx   d 6 32 00 00 06 E6 00   Length = 0 BitCount = 0 ID = 394
   0.366295 1  189             Rx   d 8 32 03 20 32 00 C8 00 00   Length = 0 BitCount = 0 ID = 393
   0.366295 1  1f6             Rx   d 8 1F 00 40 00 00 FF FF 00   Length = 0 BitCount = 0 ID = 502
   0.366295 1  5da             Rx   d 8 5E 74 00 FF 9C FF FF 00   Length = 0 BitCount = 0 ID = 1498
   0.366295 1  65c             Rx   d 3 C8 FF 00   Length = 0 BitCount = 0 ID = 1628
   0.366295 1  41d             Rx   d 4 F8 FE FF 00   Length = 0 BitCount = 0 ID = 1053
   0.366295 1  36e             Rx   d 4 03 F1 19 99   Length = 0 BitCount = 0 ID = 878
   0.366295 1  511             Rx   d 7 05 D4 DC 70 C0 09 5D   Length = 0 BitCount = 0 ID = 1297
   0.366295 1  66a             Rx   d 8 08 FF 00 00 00 00 00 00   Length = 0 BitCount = 0 ID = 1642
   0.366295 1  648             Rx   d 8 FF FF FC 00 00 7D FC 18   Length = 0 BitCount = 0 ID = 1608
   0.366295 1  41a             Rx   d 4 00 03 00 FF   Length = 0 BitCount = 0 ID = 1050
   0.366295 1  186             Rx   d 7 00 00 32 03 20 00 38   Length = 0 BitCount = 0 ID = 390
   0.366295 1  18a             Rx   d 6 32 00 00 06 E6 00   Length = 0 BitCount = 0 ID = 394
   0.366295 1  189             Rx   d 8 32 03 20 32 00 C8 00 00   Length = 0 BitCount = 0 ID = 393
   0.366295 1  1f6             Rx   d 8 1F 00 40 00 00 FF FF 00   Length = 0 BitCount = 0 ID = 502
   0.366295 1  217             Rx   d 8 FF FF 80 00 00 00 00 88   Length = 0 BitCount = 0 ID = 535
   0.366295 1  2a9             Rx   d 1 FF   Length = 0 BitCount = 0 ID = 681
   0.366295 1  2c6             Rx   d 6 00 00 08 3B AE 50   Length = 0 BitCount = 0 ID = 710
   0.401474 1  186             Rx   d 7 00 00 32 03 20 00 38   Length = 0 BitCount = 0 ID = 390
   0.401474 1  18a             Rx   d 6 32 00 00 06 E6 00   Length = 0 BitCount = 0 ID = 394
   0.401474 1  189             Rx   d 8 32 03 20 32 00 C8 00 00   Length = 0 BitCount = 0 ID = 393
   0.401474 1  1f6             Rx   d 8 1F 00 40 00 00 FF FF 00   Length = 0 BitCount = 0 ID = 502
   0.401474 1  186             Rx   d 7 00 00 32 03 20 00 38   Length = 0 BitCount = 0 ID = 390
   0.401474 1  18a             Rx   d 6 32 00 00 06 E6 00   Length = 0 BitCount = 0 ID = 394
   0.401474 1  189             Rx   d 8 32 03 20 32 00 C8 00 00   Length = 0 BitCount = 0 ID = 393
   0.401474 1  1f6             Rx   d 8 1F 00 40 00 00 FF FF 00   Length = 0 BitCount = 0 ID = 502
   0.401474 1  217             Rx   d 8 FF FF 80 00 00 00 00 88   Length = 0 BitCount = 0 ID = 535
   0.401474 1  2a9             Rx   d 1 FF   Length = 0 BitCount = 0 ID = 681
   0.401474 1  2c6             Rx   d 6 00 00 08 3B AE 50   Length = 0 BitCount = 0 ID = 710
   0.401474 1  186             Rx   d 7 00 00 32 03 20 00 38   Length = 0 BitCount = 0 ID = 390
   0.401474 1  18a             Rx   d 6 32 00 00 06 E6 00   Length = 0 BitCount = 0 ID = 394
   0.401474 1  189             Rx   d 8 32 03 20 32 00 C8 00 00   Length = 0 BitCount = 0 ID = 393
