date Wed Apr 15 06:15:09.211 pm 2026
base hex  timestamps absolute
internal events logged
// version 8.5.0
Begin Triggerblock Wed Apr 15 06:15:09.211 pm 2026
   0.000000 Start of measurement
   0.000000 1  12e             Rx   d 8 CB 7F FF 7F F0 FF FF 00   Length = 0 BitCount = 0 ID = 302
   0.000000 1  90              Rx   d 5 FF 00 0D C4 00   Length = 0 BitCount = 0 ID = 144
   0.000000 1  c6              Rx   d 8 80 3E 7F F0 7F E3 BA B6   Length = 0 BitCount = 0 ID = 198
   0.000000 1  242             Rx   d 8 12 80 FF FF FF FF FD 00   Length = 0 BitCount = 0 ID = 578
   0.000000 1  29c             Rx   d 8 00 00 00 00 FF FF 00 00   Length = 0 BitCount = 0 ID = 668
   0.000000 1  352             Rx   d 4 5C 00 00 FF   Length = 0 BitCount = 0 ID = 850
   0.000000 1  3b7             Rx   d 6 34 00 7F C0 00 C0   Length = 0 BitCount = 0 ID = 951
   0.005992 1  1b0             Rx   d 4 FF 94 FF C4   Length = 0 BitCount = 0 ID = 432
   0.005992 1  5de             Rx   d 8 00 08 00 00 00 00 00 02   Length = 0 BitCount = 0 ID = 1502
   0.005992 1  211             Rx   d 8 82 00 FF FF A9 00 00 C9   Length = 0 BitCount = 0 ID = 529
   0.005992 1  214             Rx   d 2 00 00   Length = 0 BitCount = 0 ID = 532
   0.011989 1  12e             Rx   d 8 CB 7F FF 7F F0 FF FF 00   Length = 0 BitCount = 0 ID = 302
   0.011989 1  90              Rx   d 5 FF 00 0E 10 00   Length = 0 BitCount = 0 ID = 144
   0.011989 1  c6              Rx   d 8 80 3E 80 19 7F E3 BC 8A   Length = 0 BitCount = 0 ID = 198
   0.011989 1  29a             Rx   d 8 00 00 00 00 00 00 07 F8   Length = 0 BitCount = 0 ID = 666
   0.011989 1  2b7             Rx   d 5 00 E0 FF FE 00   Length = 0 BitCount = 0 ID = 695
   0.011989 1  666             Rx   d 4 34 00 00 08   Length = 0 BitCount = 0 ID = 1638
   0.011989 1  5df             Rx   d 3 00 95 00   Length = 0 BitCount = 0 ID = 1503
   0.017983 1  392             Rx   d 5 00 06 00 00 00   Length = 0 BitCount = 0 ID = 914
   0.017983 1  668             Rx   d 2 80 00   Length = 0 BitCount = 0 ID = 1640
   0.021980 1  12e             Rx   d 8 CA 7F FF 7F F0 FF FF 00   Length = 0 BitCount = 0 ID = 302
   0.021980 1  90              Rx   d 5 FF 00 0F 5C 00   Length = 0 BitCount = 0 ID = 144
   0.021980 1  c6              Rx   d 8 80 3E 7F F0 7F E3 BE B2   Length = 0 BitCount = 0 ID = 198
   0.021980 1  242             Rx   d 8 12 80 FF FF FF FF FD 00   Length = 0 BitCount = 0 ID = 578
   0.021980 1  29c             Rx   d 8 00 00 00 00 FF FF 00 00   Length = 0 BitCount = 0 ID = 668
   0.021980 1  354             Rx   d 8 00 00 00 00 00 00 00 00   Length = 0 BitCount = 0 ID = 852
   0.023980 1  1b0             Rx   d 4 FF 94 FF C4   Length = 0 BitCount = 0 ID = 432
   0.023980 1  657             Rx   d 2 C0 CC   Length = 0 BitCount = 0 ID = 1623
   0.027978 1  211             Rx   d 8 82 00 FF FF A9 00 00 C9   Length = 0 BitCount = 0 ID = 529
   0.027978 1  214             Rx   d 2 00 00   Length = 0 BitCount = 0 ID = 532
   0.047955 1  12e             Rx   d 8 CA 7F FF 7F F0 FF FF 00   Length = 0 BitCount = 0 ID = 302
   0.047955 1  90              Rx   d 5 FF 00 00 FF 00   Length = 0 BitCount = 0 ID = 144
   0.047955 1  c6              Rx   d 8 80 3E 80 10 7F E3 A0 AF   Length = 0 BitCount = 0 ID = 198
   0.047955 1  29a             Rx   d 8 00 00 00 00 00 00 08 F7   Length = 0 BitCount = 0 ID = 666
   0.047955 1  2b7             Rx   d 5 00 E0 FF FE 00   Length = 0 BitCount = 0 ID = 695
   0.047955 1  4ac             Rx   d 5 83 6E 2A 00 80   Length = 0 BitCount = 0 ID = 1196
   0.047955 1  45c             Rx   d 6 00 00 00 00 FF E0   Length = 0 BitCount = 0 ID = 1116
   0.047955 1  12e             Rx   d 8 CA 80 00 7F F0 FF FF 00   Length = 0 BitCount = 0 ID = 302
   0.047955 1  90              Rx   d 5 FF 00 01 B3 00   Length = 0 BitCount = 0 ID = 144
   0.047955 1  c6              Rx   d 8 80 3E 7F E7 7F E3 A2 D7   Length = 0 BitCount = 0 ID = 198
   0.047955 1  242             Rx   d 8 12 80 FF FF FF FF FD 00   Length = 0 BitCount = 0 ID = 578
   0.047955 1  29c             Rx   d 8 00 00 00 00 FF FF 00 00   Length = 0 BitCount = 0 ID = 668
   0.047955 1  352             Rx   d 4 5C 00 00 FF   Length = 0 BitCount = 0 ID = 850
   0.047955 1  1b0             Rx   d 4 FF 94 FF C4   Length = 0 BitCount = 0 ID = 432
   0.047955 1  211             Rx   d 8 82 00 FF FF A9 00 00 C9   Length = 0 BitCount = 0 ID = 529
   0.047955 1  214             Rx   d 2 00 00   Length = 0 BitCount = 0 ID = 532
   0.047955 1  218             Rx   d 1 98   Length = 0 BitCount = 0 ID = 536
   0.047955 1  4fa             Rx   d 2 08 00   Length = 0 BitCount = 0 ID = 1274
   0.047955 1  671             Rx   d 2 02 00   Length = 0 BitCount = 0 ID = 1649
   0.090530 1  12e             Rx   d 8 CA 80 00 7F F0 FF FF 00   Length = 0 BitCount = 0 ID = 302
   0.090530 1  90              Rx   d 5 FF 00 02 67 00   Length = 0 BitCount = 0 ID = 144
   0.090530 1  c6              Rx   d 8 80 3E 80 08 7F E3 A4 B3   Length = 0 BitCount = 0 ID = 198
   0.090530 1  29a             Rx   d 8 00 00 00 00 00 00 09 F6   Length = 0 BitCount = 0 ID = 666
   0.090530 1  2b7             Rx   d 5 00 E0 FF FE 00   Length = 0 BitCount = 0 ID = 695
   0.090530 1  12e             Rx   d 8 CA 80 00 7F F0 FF FF 00   Length = 0 BitCount = 0 ID = 302
   0.090530 1  90              Rx   d 5 FF 00 03 2B 00   Length = 0 BitCount = 0 ID = 144
   0.090530 1  c6              Rx   d 8 80 3E 80 08 7F E3 A6 B1   Length = 0 BitCount = 0 ID = 198
   0.090530 1  242             Rx   d 8 12 80 FF FF FF FF FD 00   Length = 0 BitCount = 0 ID = 578
   0.090530 1  29c             Rx   d 8 00 00 00 00 FF FF 00 00   Length = 0 BitCount = 0 ID = 668
   0.090530 1  354             Rx   d 8 00 00 00 00 00 00 00 00   Length = 0 BitCount = 0 ID = 852
   0.090530 1  1b0             Rx   d 4 FF 94 FF C4   Length = 0 BitCount = 0 ID = 432
   0.090530 1  211             Rx   d 8 82 00 FF FF A9 00 00 C9   Length = 0 BitCount = 0 ID = 529
   0.090530 1  392             Rx   d 5 00 06 00 00 00   Length = 0 BitCount = 0 ID = 914
   0.090530 1  214             Rx   d 2 00 00   Length = 0 BitCount = 0 ID = 532
   0.090530 1  12e             Rx   d 8 CA 80 00 7F F0 FF FF 00   Length = 0 BitCount = 0 ID = 302
   0.090530 1  90              Rx   d 5 FF 00 04 D2 00   Length = 0 BitCount = 0 ID = 144
   0.090530 1  c6              Rx   d 8 80 3E 7F F8 7F E3 A8 C0   Length = 0 BitCount = 0 ID = 198
   0.090530 1  29a             Rx   d 8 00 00 00 00 00 00 0A F5   Length = 0 BitCount = 0 ID = 666
   0.090530 1  2b7             Rx   d 5 00 E0 FF FE 00   Length = 0 BitCount = 0 ID = 695
   0.090530 1  12e             Rx   d 8 CA 80 00 7F F0 FF FF 00   Length = 0 BitCount = 0 ID = 302
   0.090530 1  90              Rx   d 5 FF 00 05 9E 00   Length = 0 BitCount = 0 ID = 144
   0.090530 1  c6              Rx   d 8 80 3E 7F F8 7F E3 AA BE   Length = 0 BitCount = 0 ID = 198
   0.090530 1  242             Rx   d 8 12 80 FF FF FF FF FD 00   Length = 0 BitCount = 0 ID = 578
   0.090530 1  29c             Rx   d 8 00 00 00 00 FF FF 00 00   Length = 0 BitCount = 0 ID = 668
   0.090530 1  352             Rx   d 4 5C 00 00 FF   Length = 0 BitCount = 0 ID = 850
   0.093072 1  4f8             Rx   d 8 94 C0 00 00 00 00 00 00   Length = 0 BitCount = 0 ID = 1272
   0.093072 1  350             Rx   d 8 C3 2F 3A F1 14 14 A4 85   Length = 0 BitCount = 0 ID = 848
   0.093072 1  1b0             Rx   d 4 FF 94 FF C4   Length = 0 BitCount = 0 ID = 432
   0.093072 1  4de             Rx   d 3 C0 00 00   Length = 0 BitCount = 0 ID = 1246
   0.093072 1  55d             Rx   d 8 00 FD 50 C0 91 80 00 00   Length = 0 BitCount = 0 ID = 1373
   0.093072 1  211             Rx   d 8 82 00 FF FF A9 00 00 C9   Length = 0 BitCount = 0 ID = 529
   0.093072 1  214             Rx   d 2 00 00   Length = 0 BitCount = 0 ID = 532
   0.093072 1  12e             Rx   d 8 CA 80 00 7F F0 FF FF 00   Length = 0 BitCount = 0 ID = 302
   0.093072 1  90              Rx   d 5 FF 00 06 4A 00   Length = 0 BitCount = 0 ID = 144
   0.093072 1  c6              Rx   d 8 80 3E 80 10 7F E3 AC A3   Length = 0 BitCount = 0 ID = 198
   0.093072 1  29a             Rx   d 8 00 00 00 00 00 00 0B F4   Length = 0 BitCount = 0 ID = 666
   0.093072 1  2b7             Rx   d 5 00 E0 FF FE 00   Length = 0 BitCount = 0 ID = 695
   0.093072 1  5d7             Rx   d 7 00 00 08 12 52 00 C0   Length = 0 BitCount = 0 ID = 1495
   0.093072 1  6af             Rx   d 5 00 00 00 00 00   Length = 0 BitCount = 0 ID = 1711
   0.141433 1  12e             Rx   d 8 CA 80 00 7F F0 FF FF 00   Length = 0 BitCount = 0 ID = 302
   0.141433 1  90              Rx   d 5 FF 00 07 06 00   Length = 0 BitCount = 0 ID = 144
   0.141433 1  c6              Rx   d 8 80 3E 80 00 7F E3 AE B1   Length = 0 BitCount = 0 ID = 198
   0.141433 1  242             Rx   d 8 12 80 FF FF FF FF FD 00   Length = 0 BitCount = 0 ID = 578
   0.141433 1  29c             Rx   d 8 00 00 00 00 FF FF 00 00   Length = 0 BitCount = 0 ID = 668
   0.141433 1  354             Rx   d 8 00 00 00 00 00 00 00 00   Length = 0 BitCount = 0 ID = 852
   0.141433 1  3b7             Rx   d 6 34 00 7F C0 00 C0   Length = 0 BitCount = 0 ID = 951
   0.141433 1  1b0             Rx   d 4 FF 94 FF C4   Length = 0 BitCount = 0 ID = 432
   0.141433 1  5de             Rx   d 8 00 08 00 00 00 00 00 02   Length = 0 BitCount = 0 ID = 1502
   0.141433 1  211             Rx   d 8 82 00 FF FF A9 00 00 C9   Length = 0 BitCount = 0 ID = 529
   0.141433 1  214             Rx   d 2 00 00   Length = 0 BitCount = 0 ID = 532
   0.141433 1  12e             Rx   d 8 CA 80 00 7F F0 FF FF 00   Length = 0 BitCount = 0 ID = 302
   0.141433 1  90              Rx   d 5 FF 00 08 A5 00   Length = 0 BitCount = 0 ID = 144
   0.141433 1  c6              Rx   d 8 80 3E 7F F8 7F E3 B0 B8   Length = 0 BitCount = 0 ID = 198
   0.141433 1  29a             Rx   d 8 00 00 00 00 00 00 0C F3   Length = 0 BitCount = 0 ID = 666
   0.141433 1  2b7             Rx   d 5 00 E0 FF FE 00   Length = 0 BitCount = 0 ID = 695
   0.141433 1  666             Rx   d 4 34 00 00 08   Length = 0 BitCount = 0 ID = 1638
   0.141433 1  5df             Rx   d 3 00 95 00   Length = 0 BitCount = 0 ID = 1503
   0.141433 1  392             Rx   d 5 00 06 00 00 00   Length = 0 BitCount = 0 ID = 914
   0.141433 1  668             Rx   d 2 80 00   Length = 0 BitCount = 0 ID = 1640
   0.141433 1  12e             Rx   d 8 CA 80 00 7F F0 FF FF 00   Length = 0 BitCount = 0 ID = 302
   0.141433 1  90              Rx   d 5 FF 00 09 E9 00   Length = 0 BitCount = 0 ID = 144
   0.141433 1  c6              Rx   d 8 80 3E 80 00 7F E3 B2 AD   Length = 0 BitCount = 0 ID = 198
   0.141433 1  242             Rx   d 8 12 80 FF FF FF FF FD 00   Length = 0 BitCount = 0 ID = 578
   0.141433 1  29c             Rx   d 8 00 00 00 00 FF FF 00 00   Length = 0 BitCount = 0 ID = 668
   0.141433 1  352             Rx   d 4 5C 00 00 FF   Length = 0 BitCount = 0 ID = 850
   0.141433 1  1b0             Rx   d 4 FF 94 FF C4   Length = 0 BitCount = 0 ID = 432
   0.141433 1  657             Rx   d 2 C0 CC   Length = 0 BitCount = 0 ID = 1623
   0.141433 1  211             Rx   d 8 82 00 FF FF A9 00 00 C9   Length = 0 BitCount = 0 ID = 529
   0.141433 1  214             Rx   d 2 00 00   Length = 0 BitCount = 0 ID = 532
   0.141433 1  12e             Rx   d 8 CA 80 00 7F F0 FF FF 00   Length = 0 BitCount = 0 ID = 302
   0.141433 1  90              Rx   d 5 FF 00 0A 3D 00   Length = 0 BitCount = 0 ID = 144
   0.141433 1  c6              Rx   d 8 80 3E 7F F8 7F E3 B4 B4   Length = 0 BitCount = 0 ID = 198
   0.141433 1  29a             Rx   d 8 00 00 00 00 00 00 0D F2   Length = 0 BitCount = 0 ID = 666
   0.141433 1  2b7             Rx   d 5 00 E0 FF FE 00   Length = 0 BitCount = 0 ID = 695
   0.141433 1  4ac             Rx   d 5 83 6E 2A 00 80   Length = 0 BitCount = 0 ID = 1196
   0.141433 1  45c             Rx   d 6 00 00 00 00 FF E0   Length = 0 BitCount = 0 ID = 1116
   0.141433 1  12e             Rx   d 8 CA 80 00 7F F0 FF FF 00   Length = 0 BitCount = 0 ID = 302
   0.141433 1  90              Rx   d 5 FF 00 0B 71 00   Length = 0 BitCount = 0 ID = 144
   0.141433 1  c6              Rx   d 8 80 3E 80 19 7F E3 B6 90   Length = 0 BitCount = 0 ID = 198
   0.141433 1  242             Rx   d 8 12 80 FF FF FF FF FD 00   Length = 0 BitCount = 0 ID = 578
   0.141433 1  29c             Rx   d 8 00 00 00 00 FF FF 00 00   Length = 0 BitCount = 0 ID = 668
   0.141433 1  354             Rx   d 8 00 00 00 00 00 00 00 00   Length = 0 BitCount = 0 ID = 852
   0.141433 1  1b0             Rx   d 4 FF 94 FF C4   Length = 0 BitCount = 0 ID = 432
   0.156255 1  211             Rx   d 8 82 00 FF FF A9 00 00 C9   Length = 0 BitCount = 0 ID = 529
   0.156255 1  214             Rx   d 2 00 00   Length = 0 BitCount = 0 ID = 532
   0.156255 1  218             Rx   d 1 98   Length = 0 BitCount = 0 ID = 536
   0.156255 1  4fa             Rx   d 2 08 00   Length = 0 BitCount = 0 ID = 1274
   0.156255 1  671             Rx   d 2 02 00   Length = 0 BitCount = 0 ID = 1649
   0.156255 1  12e             Rx   d 8 CA 80 00 7F F0 FF FF 00   Length = 0 BitCount = 0 ID = 302
   0.156255 1  90              Rx   d 5 FF 00 0C 88 00   Length = 0 BitCount = 0 ID = 144
   0.156255 1  c6              Rx   d 8 80 3E 7F F0 7F E3 B8 B8   Length = 0 BitCount = 0 ID = 198
   0.156255 1  29a             Rx   d 8 00 00 00 00 00 00 0E F1   Length = 0 BitCount = 0 ID = 666
   0.156255 1  2b7             Rx   d 5 00 E0 FF FE 00   Length = 0 BitCount = 0 ID = 695
   0.162250 1  12e             Rx   d 8 C9 80 00 7F F0 FF FF 00   Length = 0 BitCount = 0 ID = 302
   0.162250 1  90              Rx   d 5 FF 00 0D C4 00   Length = 0 BitCount = 0 ID = 144
   0.162250 1  c6              Rx   d 8 80 3E 80 08 7F E3 BA 9D   Length = 0 BitCount = 0 ID = 198
   0.162250 1  242             Rx   d 8 12 80 FF FF FF FF FD 00   Length = 0 BitCount = 0 ID = 578
   0.162250 1  29c             Rx   d 8 00 00 00 00 FF FF 00 00   Length = 0 BitCount = 0 ID = 668
   0.162250 1  352             Rx   d 4 5C 00 00 FF   Length = 0 BitCount = 0 ID = 850
   0.164250 1  1b0             Rx   d 4 FF 94 FF C4   Length = 0 BitCount = 0 ID = 432
   0.168248 1  211             Rx   d 8 82 00 FF FF A9 00 00 C9   Length = 0 BitCount = 0 ID = 529
   0.168248 1  392             Rx   d 5 00 06 00 00 00   Length = 0 BitCount = 0 ID = 914
   0.168248 1  214             Rx   d 2 00 00   Length = 0 BitCount = 0 ID = 532
   0.172244 1  12e             Rx   d 8 C9 80 00 7F F0 FF FF 00   Length = 0 BitCount = 0 ID = 302
   0.172244 1  90              Rx   d 5 FF 00 0E 10 00   Length = 0 BitCount = 0 ID = 144
   0.172244 1  c6              Rx   d 8 80 3E 7F F8 7F E3 BC AC   Length = 0 BitCount = 0 ID = 198
   0.172244 1  29a             Rx   d 8 00 00 00 00 00 00 0F F0   Length = 0 BitCount = 0 ID = 666
   0.172244 1  2b7             Rx   d 5 00 E0 FF FE 00   Length = 0 BitCount = 0 ID = 695
   0.182238 1  12e             Rx   d 8 CA 80 00 7F F0 FF FF 00   Length = 0 BitCount = 0 ID = 302
   0.182238 1  90              Rx   d 5 FF 00 0F 5C 00   Length = 0 BitCount = 0 ID = 144
   0.182238 1  c6              Rx   d 8 80 3E 80 10 7F E3 BE 91   Length = 0 BitCount = 0 ID = 198
   0.182238 1  242             Rx   d 8 12 80 FF FF FF FF FD 00   Length = 0 BitCount = 0 ID = 578
   0.182238 1  29c             Rx   d 8 00 00 00 00 FF FF 00 00   Length = 0 BitCount = 0 ID = 668
   0.182238 1  354             Rx   d 8 00 00 00 00 00 00 00 00   Length = 0 BitCount = 0 ID = 852
   0.182238 1  4f8             Rx   d 8 94 C0 00 00 00 00 00 00   Length = 0 BitCount = 0 ID = 1272
   0.184238 1  350             Rx   d 8 C3 2F 3A F1 14 14 A4 85   Length = 0 BitCount = 0 ID = 848
   0.184238 1  1b0             Rx   d 4 FF 94 FF C4   Length = 0 BitCount = 0 ID = 432
   0.184238 1  4de             Rx   d 3 C0 00 00   Length = 0 BitCount = 0 ID = 1246
   0.184238 1  55d             Rx   d 8 00 FD 50 C0 91 80 00 00   Length = 0 BitCount = 0 ID = 1373
   0.188236 1  211             Rx   d 8 82 00 FF FF A9 00 00 C9   Length = 0 BitCount = 0 ID = 529
   0.188236 1  214             Rx   d 2 00 00   Length = 0 BitCount = 0 ID = 532
   0.192234 1  12e             Rx   d 8 CA 80 00 7F F0 FF FF 00   Length = 0 BitCount = 0 ID = 302
   0.192234 1  90              Rx   d 5 FF 00 00 FF 00   Length = 0 BitCount = 0 ID = 144
   0.192234 1  c6              Rx   d 8 80 3E 7F F8 7F E3 A0 C8   Length = 0 BitCount = 0 ID = 198
   0.192234 1  29a             Rx   d 8 00 00 00 00 00 00 00 FF   Length = 0 BitCount = 0 ID = 666
   0.192234 1  2b7             Rx   d 5 00 E0 FF FE 00   Length = 0 BitCount = 0 ID = 695
   0.192234 1  5d7             Rx   d 7 00 00 08 12 52 00 C0   Length = 0 BitCount = 0 ID = 1495
   0.196233 1  6af             Rx   d 5 00 00 00 00 00   Length = 0 BitCount = 0 ID = 1711
   0.202228 1  12e             Rx   d 8 CA 80 00 7F F0 FF FF 00   Length = 0 BitCount = 0 ID = 302
   0.202228 1  90              Rx   d 5 FF 00 01 B3 00   Length = 0 BitCount = 0 ID = 144
   0.202228 1  c6              Rx   d 8 80 3E 80 08 7F E3 A2 B5   Length = 0 BitCount = 0 ID = 198
   0.202228 1  242             Rx   d 8 12 80 FF FF FF FF FD 00   Length = 0 BitCount = 0 ID = 578
   0.202228 1  29c             Rx   d 8 00 00 00 00 FF FF 00 00   Length = 0 BitCount = 0 ID = 668
   0.202228 1  352             Rx   d 4 5C 00 00 FF   Length = 0 BitCount = 0 ID = 850
   0.202228 1  3b7             Rx   d 6 34 00 7F C0 00 C0   Length = 0 BitCount = 0 ID = 951
   0.202228 1  1b0             Rx   d 4 FF 94 FF C4   Length = 0 BitCount = 0 ID = 432
   0.202228 1  5de             Rx   d 8 00 08 00 00 00 00 00 02   Length = 0 BitCount = 0 ID = 1502
   0.236406 1  211             Rx   d 8 82 00 FF FF A9 00 00 C9   Length = 0 BitCount = 0 ID = 529
   0.236406 1  214             Rx   d 2 00 00   Length = 0 BitCount = 0 ID = 532
   0.236406 1  12e             Rx   d 8 CA 80 00 7F F0 FF FF 00   Length = 0 BitCount = 0 ID = 302
   0.236406 1  90              Rx   d 5 FF 00 02 67 00   Length = 0 BitCount = 0 ID = 144
   0.236406 1  c6              Rx   d 8 80 3E 7F F8 7F E3 A4 C4   Length = 0 BitCount = 0 ID = 198
   0.236406 1  29a             Rx   d 8 00 00 00 00 00 00 01 FE   Length = 0 BitCount = 0 ID = 666
   0.236406 1  2b7             Rx   d 5 00 E0 FF FE 00   Length = 0 BitCount = 0 ID = 695
   0.236406 1  666             Rx   d 4 34 00 00 08   Length = 0 BitCount = 0 ID = 1638
   0.236406 1  5df             Rx   d 3 00 95 00   Length = 0 BitCount = 0 ID = 1503
   0.236406 1  392             Rx   d 5 00 06 00 00 00   Length = 0 BitCount = 0 ID = 914
   0.236406 1  668             Rx   d 2 80 00   Length = 0 BitCount = 0 ID = 1640
   0.236406 1  12e             Rx   d 8 CA 80 00 7F F0 FF FF 00   Length = 0 BitCount = 0 ID = 302
   0.236406 1  90              Rx   d 5 FF 00 03 2B 00   Length = 0 BitCount = 0 ID = 144
   0.236406 1  c6              Rx   d 8 80 3E 80 00 7F E3 A6 B9   Length = 0 BitCount = 0 ID = 198
   0.236406 1  242             Rx   d 8 12 80 FF FF FF FF FD 00   Length = 0 BitCount = 0 ID = 578
   0.236406 1  29c             Rx   d 8 00 00 00 00 FF FF 00 00   Length = 0 BitCount = 0 ID = 668
   0.236406 1  354             Rx   d 8 00 00 00 00 00 00 00 00   Length = 0 BitCount = 0 ID = 852
   0.236406 1  1b0             Rx   d 4 FF 94 FF C4   Length = 0 BitCount = 0 ID = 432
   0.236406 1  657             Rx   d 2 C0 CC   Length = 0 BitCount = 0 ID = 1623
   0.236406 1  211             Rx   d 8 82 00 FF FF A9 00 00 C9   Length = 0 BitCount = 0 ID = 529
   0.236406 1  214             Rx   d 2 00 00   Length = 0 BitCount = 0 ID = 532
   0.236406 1  12e             Rx   d 8 CA 80 00 7F F0 FF FF 00   Length = 0 BitCount = 0 ID = 302
   0.236406 1  90              Rx   d 5 FF 00 04 D2 00   Length = 0 BitCount = 0 ID = 144
   0.236406 1  c6              Rx   d 8 80 3E 7F F8 7F E3 A8 C0   Length = 0 BitCount = 0 ID = 198
   0.236406 1  29a             Rx   d 8 00 00 00 00 00 00 02 FD   Length = 0 BitCount = 0 ID = 666
   0.236406 1  2b7             Rx   d 5 00 E0 FF FE 00   Length = 0 BitCount = 0 ID = 695
   0.236406 1  4ac             Rx   d 5 83 6E 2A 00 80   Length = 0 BitCount = 0 ID = 1196
   0.236406 1  45c             Rx   d 6 00 00 00 00 FF E0   Length = 0 BitCount = 0 ID = 1116
   0.272789 1  12e             Rx   d 8 CA 7F FF 7F F0 FF FF 00   Length = 0 BitCount = 0 ID = 302
   0.272789 1  90              Rx   d 5 FF 00 05 9E 00   Length = 0 BitCount = 0 ID = 144
   0.272789 1  c6              Rx   d 8 80 3E 80 08 7F E3 AA AD   Length = 0 BitCount = 0 ID = 198
   0.272789 1  242             Rx   d 8 12 80 FF FF FF FF FD 00   Length = 0 BitCount = 0 ID = 578
   0.272789 1  29c             Rx   d 8 00 00 00 00 FF FF 00 00   Length = 0 BitCount = 0 ID = 668
   0.272789 1  352             Rx   d 4 5C 00 00 FF   Length = 0 BitCount = 0 ID = 850
   0.272789 1  1b0             Rx   d 4 FF 94 FF C4   Length = 0 BitCount = 0 ID = 432
   0.272789 1  211             Rx   d 8 82 00 FF FF A9 00 00 C9   Length = 0 BitCount = 0 ID = 529
   0.272789 1  214             Rx   d 2 00 00   Length = 0 BitCount = 0 ID = 532
   0.272789 1  218             Rx   d 1 98   Length = 0 BitCount = 0 ID = 536
   0.272789 1  4fa             Rx   d 2 08 00   Length = 0 BitCount = 0 ID = 1274
   0.272789 1  671             Rx   d 2 02 00   Length = 0 BitCount = 0 ID = 1649
   0.272789 1  12e             Rx   d 8 CA 7F FF 7F F0 FF FF 00   Length = 0 BitCount = 0 ID = 302
   0.272789 1  90              Rx   d 5 FF 00 06 4A 00   Length = 0 BitCount = 0 ID = 144
   0.272789 1  c6              Rx   d 8 80 3E 7F F0 7F E3 AC C4   Length = 0 BitCount = 0 ID = 198
   0.272789 1  29a             Rx   d 8 00 00 00 00 00 00 03 FC   Length = 0 BitCount = 0 ID = 666
   0.272789 1  2b7             Rx   d 5 00 E0 FF FE 00   Length = 0 BitCount = 0 ID = 695
   0.272789 1  12e             Rx   d 8 CA 7F FF 7F F0 FF FF 00   Length = 0 BitCount = 0 ID = 302
   0.272789 1  90              Rx   d 5 FF 00 07 06 00   Length = 0 BitCount = 0 ID = 144
   0.272789 1  c6              Rx   d 8 80 3E 80 10 7F E3 AE A1   Length = 0 BitCount = 0 ID = 198
   0.272789 1  242             Rx   d 8 12 80 FF FF FF FF FD 00   Length = 0 BitCount = 0 ID = 578
   0.272789 1  29c             Rx   d 8 00 00 00 00 FF FF 00 00   Length = 0 BitCount = 0 ID = 668
   0.272789 1  354             Rx   d 8 00 00 00 00 00 00 00 00   Length = 0 BitCount = 0 ID = 852
   0.272789 1  1b0             Rx   d 4 FF 94 FF C4   Length = 0 BitCount = 0 ID = 432
   0.272789 1  211             Rx   d 8 82 00 FF FF A9 00 00 C9   Length = 0 BitCount = 0 ID = 529
   0.272789 1  392             Rx   d 5 00 06 00 00 00   Length = 0 BitCount = 0 ID = 914
   0.272789 1  214             Rx   d 2 00 00   Length = 0 BitCount = 0 ID = 532
   0.272789 1  12e             Rx   d 8 CA 7F FF 7F F0 FF FF 00   Length = 0 BitCount = 0 ID = 302
   0.272789 1  90              Rx   d 5 FF 00 08 A5 00   Length = 0 BitCount = 0 ID = 144
   0.272789 1  c6              Rx   d 8 80 3E 7F F8 7F E3 B0 B8   Length = 0 BitCount = 0 ID = 198
   0.272789 1  29a             Rx   d 8 00 00 00 00 00 00 04 FB   Length = 0 BitCount = 0 ID = 666
   0.272789 1  2b7             Rx   d 5 00 E0 FF FE 00   Length = 0 BitCount = 0 ID = 695
   0.306850 1  12e             Rx   d 8 CA 80 00 7F F0 FF FF 00   Length = 0 BitCount = 0 ID = 302
   0.306850 1  90              Rx   d 5 FF 00 09 E9 00   Length = 0 BitCount = 0 ID = 144
   0.306850 1  c6              Rx   d 8 80 3E 80 00 7F E3 B2 AD   Length = 0 BitCount = 0 ID = 198
   0.306850 1  242             Rx   d 8 12 80 FF FF FF FF FD 00   Length = 0 BitCount = 0 ID = 578
   0.306850 1  29c             Rx   d 8 00 00 00 00 FF FF 00 00   Length = 0 BitCount = 0 ID = 668
   0.306850 1  352             Rx   d 4 5C 00 00 FF   Length = 0 BitCount = 0 ID = 850
   0.306850 1  4f8             Rx   d 8 94 C0 00 00 00 00 00 00   Length = 0 BitCount = 0 ID = 1272
   0.306850 1  350             Rx   d 8 C3 2F 3A F1 14 14 A4 85   Length = 0 BitCount = 0 ID = 848
   0.306850 1  1b0             Rx   d 4 FF 94 FF C4   Length = 0 BitCount = 0 ID = 432
   0.306850 1  4de             Rx   d 3 C0 00 00   Length = 0 BitCount = 0 ID = 1246
   0.306850 1  55d             Rx   d 8 00 FD 50 C0 91 80 00 00   Length = 0 BitCount = 0 ID = 1373
   0.306850 1  211             Rx   d 8 82 00 FF FF A9 00 00 C9   Length = 0 BitCount = 0 ID = 529
   0.306850 1  214             Rx   d 2 00 00   Length = 0 BitCount = 0 ID = 532
   0.306850 1  12e             Rx   d 8 CA 80 00 7F F0 FF FF 00   Length = 0 BitCount = 0 ID = 302
   0.306850 1  90              Rx   d 5 FF 00 0A 3D 00   Length = 0 BitCount = 0 ID = 144
   0.306850 1  c6              Rx   d 8 80 3E 80 08 7F E3 B4 A3   Length = 0 BitCount = 0 ID = 198
   0.306850 1  29a             Rx   d 8 00 00 00 00 00 00 05 FA   Length = 0 BitCount = 0 ID = 666
   0.306850 1  2b7             Rx   d 5 00 E0 FF FE 00   Length = 0 BitCount = 0 ID = 695
   0.306850 1  5d7             Rx   d 7 00 00 08 12 52 00 C0   Length = 0 BitCount = 0 ID = 1495
   0.306850 1  6af             Rx   d 5 00 00 00 00 00   Length = 0 BitCount = 0 ID = 1711
   0.306850 1  12e             Rx   d 8 CA 80 00 7F F0 FF FF 00   Length = 0 BitCount = 0 ID = 302
   0.306850 1  90              Rx   d 5 FF 00 0B 71 00   Length = 0 BitCount = 0 ID = 144
   0.306850 1  c6              Rx   d 8 80 3E 7F F8 7F E3 B6 B2   Length = 0 BitCount = 0 ID = 198
   0.306850 1  242             Rx   d 8 12 80 FF FF FF FF FD 00   Length = 0 BitCount = 0 ID = 578
   0.306850 1  29c             Rx   d 8 00 00 00 00 FF FF 00 00   Length = 0 BitCount = 0 ID = 668
   0.306850 1  354             Rx   d 8 00 00 00 00 00 00 00 00   Length = 0 BitCount = 0 ID = 852
   0.306850 1  3b7             Rx   d 6 34 00 7F C0 00 C0   Length = 0 BitCount = 0 ID = 951
   0.306850 1  1b0             Rx   d 4 FF 94 FF C4   Length = 0 BitCount = 0 ID = 432
   0.306850 1  5de             Rx   d 8 00 08 00 00 00 00 00 02   Length = 0 BitCount = 0 ID = 1502
   0.306850 1  211             Rx   d 8 82 00 FF FF A9 00 00 C9   Length = 0 BitCount = 0 ID = 529
   0.306850 1  214             Rx   d 2 00 00   Length = 0 BitCount = 0 ID = 532
   0.312278 1  12e             Rx   d 8 CA 80 00 7F F0 FF FF 00   Length = 0 BitCount = 0 ID = 302
   0.312278 1  90              Rx   d 5 FF 00 0C 88 00   Length = 0 BitCount = 0 ID = 144
   0.312278 1  c6              Rx   d 8 80 3E 80 00 7F E3 B8 A7   Length = 0 BitCount = 0 ID = 198
   0.312278 1  29a             Rx   d 8 00 00 00 00 00 00 06 F9   Length = 0 BitCount = 0 ID = 666
   0.312278 1  2b7             Rx   d 5 00 E0 FF FE 00   Length = 0 BitCount = 0 ID = 695
   0.312278 1  666             Rx   d 4 34 00 00 08   Length = 0 BitCount = 0 ID = 1638
   0.312278 1  646             Rx   d 8 00 00 00 02 00 00 00 0C   Length = 0 BitCount = 0 ID = 1606
   0.312278 1  5df             Rx   d 3 00 95 00   Length = 0 BitCount = 0 ID = 1503
   0.318274 1  392             Rx   d 5 00 06 00 00 00   Length = 0 BitCount = 0 ID = 914
   0.318274 1  668             Rx   d 2 80 00   Length = 0 BitCount = 0 ID = 1640
   0.322272 1  12e             Rx   d 8 CA 80 00 7F F0 FF FF 00   Length = 0 BitCount = 0 ID = 302
   0.322272 1  90              Rx   d 5 FF 00 0D C4 00   Length = 0 BitCount = 0 ID = 144
   0.322272 1  c6              Rx   d 8 80 3E 7F F8 7F E3 BA AE   Length = 0 BitCount = 0 ID = 198
   0.322272 1  242             Rx   d 8 12 80 FF FF FF FF FD 00   Length = 0 BitCount = 0 ID = 578
   0.322272 1  29c             Rx   d 8 00 00 00 00 FF FF 00 00   Length = 0 BitCount = 0 ID = 668
   0.322272 1  352             Rx   d 4 5C 00 00 FF   Length = 0 BitCount = 0 ID = 850
   0.324271 1  1b0             Rx   d 4 FF 94 FF C4   Length = 0 BitCount = 0 ID = 432
   0.324271 1  657             Rx   d 2 C0 CC   Length = 0 BitCount = 0 ID = 1623
   0.328268 1  211             Rx   d 8 82 00 FF FF A9 00 00 C9   Length = 0 BitCount = 0 ID = 529
   0.328268 1  214             Rx   d 2 00 00   Length = 0 BitCount = 0 ID = 532
   0.332264 1  12e             Rx   d 8 CA 80 00 7F F0 FF FF 00   Length = 0 BitCount = 0 ID = 302
   0.332264 1  90              Rx   d 5 FF 00 0E 10 00   Length = 0 BitCount = 0 ID = 144
   0.332264 1  c6              Rx   d 8 80 3E 80 00 7F E3 BC A3   Length = 0 BitCount = 0 ID = 198
   0.332264 1  29a             Rx   d 8 00 00 00 00 00 00 07 F8   Length = 0 BitCount = 0 ID = 666
   0.332264 1  2b7             Rx   d 5 00 E0 FF FE 00   Length = 0 BitCount = 0 ID = 695
   0.332264 1  4ac             Rx   d 5 83 6E 2A 00 80   Length = 0 BitCount = 0 ID = 1196
   0.332264 1  45c             Rx   d 6 00 00 00 00 FF E0   Length = 0 BitCount = 0 ID = 1116
   0.342260 1  12e             Rx   d 8 CA 80 00 7F F0 FF FF 00   Length = 0 BitCount = 0 ID = 302
   0.342260 1  90              Rx   d 5 FF 00 0F 5C 00   Length = 0 BitCount = 0 ID = 144
   0.342260 1  c6              Rx   d 8 80 3E 80 00 7F E3 BE A1   Length = 0 BitCount = 0 ID = 198
   0.342260 1  242             Rx   d 8 12 80 FF FF FF FF FD 00   Length = 0 BitCount = 0 ID = 578
   0.342260 1  29c             Rx   d 8 00 00 00 00 FF FF 00 00   Length = 0 BitCount = 0 ID = 668
   0.342260 1  354             Rx   d 8 00 00 00 00 00 00 00 00   Length = 0 BitCount = 0 ID = 852
   0.342260 1  1b0             Rx   d 4 FF 94 FF C4   Length = 0 BitCount = 0 ID = 432
   0.348256 1  211             Rx   d 8 82 00 FF FF A9 00 00 C9   Length = 0 BitCount = 0 ID = 529
   0.348256 1  214             Rx   d 2 00 00   Length = 0 BitCount = 0 ID = 532
   0.348256 1  218             Rx   d 1 98   Length = 0 BitCount = 0 ID = 536
   0.348256 1  4fa             Rx   d 2 08 00   Length = 0 BitCount = 0 ID = 1274
   0.348256 1  671             Rx   d 2 02 00   Length = 0 BitCount = 0 ID = 1649
   0.352254 1  12e             Rx   d 8 CA 80 00 7F F0 FF FF 00   Length = 0 BitCount = 0 ID = 302
   0.352254 1  90              Rx   d 5 FF 00 00 FF 00   Length = 0 BitCount = 0 ID = 144
   0.352254 1  c6              Rx   d 8 80 3E 80 10 7F E3 A0 AF   Length = 0 BitCount = 0 ID = 198
   0.352254 1  29a             Rx   d 8 00 00 00 00 00 00 08 F7   Length = 0 BitCount = 0 ID = 666
   0.352254 1  2b7             Rx   d 5 00 E0 FF FE 00   Length = 0 BitCount = 0 ID = 695
   0.389789 1  12e             Rx   d 8 CA 7F FF 7F F0 FF FF 00   Length = 0 BitCount = 0 ID = 302
   0.389789 1  90              Rx   d 5 FF 00 01 B3 00   Length = 0 BitCount = 0 ID = 144
   0.389789 1  c6              Rx   d 8 80 3E 80 00 7F E3 A2 BD   Length = 0 BitCount = 0 ID = 198
   0.389789 1  242             Rx   d 8 12 80 FF FF FF FF FD 00   Length = 0 BitCount = 0 ID = 578
   0.389789 1  29c             Rx   d 8 00 00 00 00 FF FF 00 00   Length = 0 BitCount = 0 ID = 668
   0.389789 1  352             Rx   d 4 5C 00 00 FF   Length = 0 BitCount = 0 ID = 850
   0.389789 1  1b0             Rx   d 4 FF 94 FF C4   Length = 0 BitCount = 0 ID = 432
   0.389789 1  211             Rx   d 8 82 00 FF FF A9 00 00 C9   Length = 0 BitCount = 0 ID = 529
   0.389789 1  392             Rx   d 5 00 06 00 00 00   Length = 0 BitCount = 0 ID = 914
   0.389789 1  214             Rx   d 2 00 00   Length = 0 BitCount = 0 ID = 532
   0.389789 1  12e             Rx   d 8 CA 7F FF 7F F0 FF FF 00   Length = 0 BitCount = 0 ID = 302
   0.389789 1  90              Rx   d 5 FF 00 02 67 00   Length = 0 BitCount = 0 ID = 144
   0.389789 1  c6              Rx   d 8 80 3E 80 00 7F E3 A4 BB   Length = 0 BitCount = 0 ID = 198
   0.389789 1  29a             Rx   d 8 00 00 00 00 00 00 09 F6   Length = 0 BitCount = 0 ID = 666
   0.389789 1  2b7             Rx   d 5 00 E0 FF FE 00   Length = 0 BitCount = 0 ID = 695
   0.389789 1  12e             Rx   d 8 CA 7F FF 7F F0 FF FF 00   Length = 0 BitCount = 0 ID = 302
   0.389789 1  90              Rx   d 5 FF 00 03 2B 00   Length = 0 BitCount = 0 ID = 144
   0.389789 1  c6              Rx   d 8 80 3E 80 00 7F E3 A6 B9   Length = 0 BitCount = 0 ID = 198
   0.389789 1  242             Rx   d 8 12 80 FF FF FF FF FD 00   Length = 0 BitCount = 0 ID = 578
   0.389789 1  29c             Rx   d 8 00 00 00 00 FF FF 00 00   Length = 0 BitCount = 0 ID = 668
   0.389789 1  354             Rx   d 8 00 00 00 00 00 00 00 00   Length = 0 BitCount = 0 ID = 852
   0.389789 1  4f8             Rx   d 8 94 C0 00 00 00 00 00 00   Length = 0 BitCount = 0 ID = 1272
   0.389789 1  350             Rx   d 8 C3 2F 3A F1 14 14 A4 85   Length = 0 BitCount = 0 ID = 848
   0.389789 1  1b0             Rx   d 4 FF 94 FF C4   Length = 0 BitCount = 0 ID = 432
   0.389789 1  4de             Rx   d 3 C0 00 00   Length = 0 BitCount = 0 ID = 1246
   0.389789 1  55d             Rx   d 8 00 FD 50 C0 91 80 00 00   Length = 0 BitCount = 0 ID = 1373
   0.389789 1  211             Rx   d 8 82 00 FF FF A9 00 00 C9   Length = 0 BitCount = 0 ID = 529
   0.389789 1  214             Rx   d 2 00 00   Length = 0 BitCount = 0 ID = 532
   0.389789 1  12e             Rx   d 8 CA 7F FF 7F F0 FF FF 00   Length = 0 BitCount = 0 ID = 302
   0.389789 1  90              Rx   d 5 FF 00 04 D2 00   Length = 0 BitCount = 0 ID = 144
   0.389789 1  c6              Rx   d 8 80 3E 7F F8 7F E3 A8 C0   Length = 0 BitCount = 0 ID = 198
   0.389789 1  29a             Rx   d 8 00 00 00 00 00 00 0A F5   Length = 0 BitCount = 0 ID = 666
   0.389789 1  2b7             Rx   d 5 00 E0 FF FE 00   Length = 0 BitCount = 0 ID = 695
   0.389789 1  5d7             Rx   d 7 00 00 08 12 52 00 C0   Length = 0 BitCount = 0 ID = 1495
   0.427829 1  6af             Rx   d 5 00 00 00 00 00   Length = 0 BitCount = 0 ID = 1711
   0.427829 1  12e             Rx   d 8 CA 80 00 7F F0 FF FF 00   Length = 0 BitCount = 0 ID = 302
   0.427829 1  90              Rx   d 5 FF 00 05 9E 00   Length = 0 BitCount = 0 ID = 144
   0.427829 1  c6              Rx   d 8 80 3E 80 08 7F E3 AA AD   Length = 0 BitCount = 0 ID = 198
   0.427829 1  242             Rx   d 8 12 80 FF FF FF FF FD 00   Length = 0 BitCount = 0 ID = 578
   0.427829 1  29c             Rx   d 8 00 00 00 00 FF FF 00 00   Length = 0 BitCount = 0 ID = 668
   0.427829 1  352             Rx   d 4 5C 00 00 FF   Length = 0 BitCount = 0 ID = 850
   0.427829 1  3b7             Rx   d 6 34 00 7F C0 00 C0   Length = 0 BitCount = 0 ID = 951
   0.427829 1  1b0             Rx   d 4 FF 94 FF C4   Length = 0 BitCount = 0 ID = 432
   0.427829 1  5de             Rx   d 8 00 08 00 00 00 00 00 02   Length = 0 BitCount = 0 ID = 1502
   0.427829 1  211             Rx   d 8 82 00 FF FF A9 00 00 C9   Length = 0 BitCount = 0 ID = 529
   0.427829 1  214             Rx   d 2 00 00   Length = 0 BitCount = 0 ID = 532
   0.427829 1  12e             Rx   d 8 CA 80 00 7F F0 FF FF 00   Length = 0 BitCount = 0 ID = 302
   0.427829 1  90              Rx   d 5 FF 00 06 4A 00   Length = 0 BitCount = 0 ID = 144
   0.427829 1  c6              Rx   d 8 80 3E 7F F8 7F E3 AC BC   Length = 0 BitCount = 0 ID = 198
   0.427829 1  29a             Rx   d 8 00 00 00 00 00 00 0B F4   Length = 0 BitCount = 0 ID = 666
   0.427829 1  2b7             Rx   d 5 00 E0 FF FE 00   Length = 0 BitCount = 0 ID = 695
   0.427829 1  666             Rx   d 4 34 00 00 08   Length = 0 BitCount = 0 ID = 1638
   0.427829 1  5df             Rx   d 3 00 95 00   Length = 0 BitCount = 0 ID = 1503
   0.427829 1  392             Rx   d 5 00 06 00 00 00   Length = 0 BitCount = 0 ID = 914
   0.427829 1  668             Rx   d 2 80 00   Length = 0 BitCount = 0 ID = 1640
   0.427829 1  12e             Rx   d 8 CB 80 00 7F F0 FF FF 00   Length = 0 BitCount = 0 ID = 302
   0.427829 1  90              Rx   d 5 FF 00 07 06 00   Length = 0 BitCount = 0 ID = 144
   0.427829 1  c6              Rx   d 8 80 3E 80 08 7F E3 AE A9   Length = 0 BitCount = 0 ID = 198
   0.427829 1  242             Rx   d 8 12 80 FF FF FF FF FD 00   Length = 0 BitCount = 0 ID = 578
   0.427829 1  29c             Rx   d 8 00 00 00 00 FF FF 00 00   Length = 0 BitCount = 0 ID = 668
   0.427829 1  354             Rx   d 8 00 00 00 00 00 00 00 00   Length = 0 BitCount = 0 ID = 852
   0.427829 1  1b0             Rx   d 4 FF 94 FF C4   Length = 0 BitCount = 0 ID = 432
   0.427829 1  657             Rx   d 2 C0 CC   Length = 0 BitCount = 0 ID = 1623
   0.427829 1  211             Rx   d 8 82 00 FF FF A9 00 00 C9   Length = 0 BitCount = 0 ID = 529
   0.427829 1  214             Rx   d 2 00 00   Length = 0 BitCount = 0 ID = 532
   0.463656 1  12e             Rx   d 8 CB 80 00 7F F0 FF FF 00   Length = 0 BitCount = 0 ID = 302
   0.463656 1  90              Rx   d 5 FF 00 08 A5 00   Length = 0 BitCount = 0 ID = 144
   0.463656 1  c6              Rx   d 8 80 3E 7F F8 7F E3 B0 B8   Length = 0 BitCount = 0 ID = 198
   0.463656 1  29a             Rx   d 8 00 00 00 00 00 00 0C F3   Length = 0 BitCount = 0 ID = 666
   0.463656 1  2b7             Rx   d 5 00 E0 FF FE 00   Length = 0 BitCount = 0 ID = 695
   0.463656 1  4ac             Rx   d 5 83 6E 2A 00 80   Length = 0 BitCount = 0 ID = 1196
   0.463656 1  45c             Rx   d 6 00 00 00 00 FF E0   Length = 0 BitCount = 0 ID = 1116
   0.463656 1  12e             Rx   d 8 CA 80 00 7F F0 FF FF 00   Length = 0 BitCount = 0 ID = 302
   0.463656 1  90              Rx   d 5 FF 00 09 E9 00   Length = 0 BitCount = 0 ID = 144
   0.463656 1  c6              Rx   d 8 80 3E 80 08 7F E3 B2 A5   Length = 0 BitCount = 0 ID = 198
   0.463656 1  242             Rx   d 8 12 80 FF FF FF FF FD 00   Length = 0 BitCount = 0 ID = 578
   0.463656 1  29c             Rx   d 8 00 00 00 00 FF FF 00 00   Length = 0 BitCount = 0 ID = 668
   0.463656 1  352             Rx   d 4 5C 00 00 FF   Length = 0 BitCount = 0 ID = 850
   0.463656 1  1b0             Rx   d 4 FF 94 FF C4   Length = 0 BitCount = 0 ID = 432
   0.463656 1  211             Rx   d 8 82 00 FF FF A9 00 00 C9   Length = 0 BitCount = 0 ID = 529
   0.463656 1  214             Rx   d 2 00 00   Length = 0 BitCount = 0 ID = 532
   0.463656 1  218             Rx   d 1 98   Length = 0 BitCount = 0 ID = 536
   0.463656 1  4fa             Rx   d 2 08 00   Length = 0 BitCount = 0 ID = 1274
   0.463656 1  671             Rx   d 2 02 00   Length = 0 BitCount = 0 ID = 1649
   0.463656 1  12e             Rx   d 8 CA 80 00 7F F0 FF FF 00   Length = 0 BitCount = 0 ID = 302
   0.463656 1  90              Rx   d 5 FF 00 0A 3D 00   Length = 0 BitCount = 0 ID = 144
   0.463656 1  c6              Rx   d 8 80 3E 80 00 7F E3 B4 AB   Length = 0 BitCount = 0 ID = 198
   0.463656 1  29a             Rx   d 8 00 00 00 00 00 00 0D F2   Length = 0 BitCount = 0 ID = 666
   0.463656 1  2b7             Rx   d 5 00 E0 FF FE 00   Length = 0 BitCount = 0 ID = 695
   0.463656 1  12e             Rx   d 8 CA 7F FF 7F F0 FF FF 00   Length = 0 BitCount = 0 ID = 302
   0.463656 1  90              Rx   d 5 FF 00 0B 71 00   Length = 0 BitCount = 0 ID = 144
   0.463656 1  c6              Rx   d 8 80 3E 80 00 7F E3 B6 A9   Length = 0 BitCount = 0 ID = 198
   0.463656 1  242             Rx   d 8 12 80 FF FF FF FF FD 00   Length = 0 BitCount = 0 ID = 578
   0.463656 1  29c             Rx   d 8 00 00 00 00 FF FF 00 00   Length = 0 BitCount = 0 ID = 668
   0.465748 1  354             Rx   d 8 00 00 00 00 00 00 00 00   Length = 0 BitCount = 0 ID = 852
   0.465748 1  1b0             Rx   d 4 FF 94 FF C4   Length = 0 BitCount = 0 ID = 432
   0.465748 1  211             Rx   d 8 82 00 FF FF A9 00 00 C9   Length = 0 BitCount = 0 ID = 529
   0.465748 1  214             Rx   d 2 00 00   Length = 0 BitCount = 0 ID = 532
   0.465748 1  392             Rx   d 5 00 06 00 00 00   Length = 0 BitCount = 0 ID = 914
   0.471742 1  12e             Rx   d 8 CA 7F FF 7F F0 FF FF 00   Length = 0 BitCount = 0 ID = 302
   0.471742 1  90              Rx   d 5 FF 00 0C 88 00   Length = 0 BitCount = 0 ID = 144
   0.471742 1  c6              Rx   d 8 80 3E 80 08 7F E3 B8 9F   Length = 0 BitCount = 0 ID = 198
   0.471742 1  29a             Rx   d 8 00 00 00 00 00 00 0E F1   Length = 0 BitCount = 0 ID = 666
   0.471742 1  2b7             Rx   d 5 00 E0 FF FE 00   Length = 0 BitCount = 0 ID = 695
   0.481737 1  12e             Rx   d 8 CA 7F FF 7F F0 FF FF 00   Length = 0 BitCount = 0 ID = 302
   0.481737 1  90              Rx   d 5 FF 00 0D C4 00   Length = 0 BitCount = 0 ID = 144
   0.481737 1  c6              Rx   d 8 80 3E 7F E7 7F E3 BA BF   Length = 0 BitCount = 0 ID = 198
   0.481737 1  242             Rx   d 8 12 80 FF FF FF FF FD 00   Length = 0 BitCount = 0 ID = 578
   0.481737 1  29c             Rx   d 8 00 00 00 00 FF FF 00 00   Length = 0 BitCount = 0 ID = 668
   0.481737 1  352             Rx   d 4 5C 00 00 FF   Length = 0 BitCount = 0 ID = 850
   0.483742 1  4f8             Rx   d 8 94 C0 00 00 00 00 00 00   Length = 0 BitCount = 0 ID = 1272
   0.483742 1  350             Rx   d 8 C3 2F 3A F1 14 14 A4 85   Length = 0 BitCount = 0 ID = 848
   0.483742 1  1b0             Rx   d 4 FF 94 FF C4   Length = 0 BitCount = 0 ID = 432
   0.483742 1  4de             Rx   d 3 C0 00 00   Length = 0 BitCount = 0 ID = 1246
   0.483742 1  55d             Rx   d 8 00 FD 50 C0 91 80 00 00   Length = 0 BitCount = 0 ID = 1373
   0.489732 1  211             Rx   d 8 82 00 FF FF A9 00 00 C9   Length = 0 BitCount = 0 ID = 529
   0.489732 1  214             Rx   d 2 00 00   Length = 0 BitCount = 0 ID = 532
   0.491729 1  12e             Rx   d 8 CA 7F FF 7F F0 FF FF 00   Length = 0 BitCount = 0 ID = 302
   0.491729 1  90              Rx   d 5 FF 00 0E 10 00   Length = 0 BitCount = 0 ID = 144
   0.491729 1  c6              Rx   d 8 80 3E 80 10 7F E3 BC 93   Length = 0 BitCount = 0 ID = 198
   0.491729 1  29a             Rx   d 8 00 00 00 00 00 00 0F F0   Length = 0 BitCount = 0 ID = 666
   0.491729 1  2b7             Rx   d 5 00 E0 FF FE 00   Length = 0 BitCount = 0 ID = 695
   0.491729 1  5d7             Rx   d 7 00 00 08 12 52 00 C0   Length = 0 BitCount = 0 ID = 1495
   0.495729 1  6af             Rx   d 5 00 00 00 00 00   Length = 0 BitCount = 0 ID = 1711
   0.501723 1  12e             Rx   d 8 CA 7F FF 7F F0 FF FF 00   Length = 0 BitCount = 0 ID = 302
   0.501723 1  90              Rx   d 5 FF 00 0F 5C 00   Length = 0 BitCount = 0 ID = 144
   0.501723 1  c6              Rx   d 8 80 3E 7F F8 7F E3 BE AA   Length = 0 BitCount = 0 ID = 198
   0.501723 1  242             Rx   d 8 12 80 FF FF FF FF FD 00   Length = 0 BitCount = 0 ID = 578
   0.501723 1  29c             Rx   d 8 00 00 00 00 FF FF 00 00   Length = 0 BitCount = 0 ID = 668
   0.501723 1  354             Rx   d 8 00 00 00 00 00 00 00 00   Length = 0 BitCount = 0 ID = 852
   0.501723 1  3b7             Rx   d 6 34 00 7F C0 00 C0   Length = 0 BitCount = 0 ID = 951
   0.501723 1  1b0             Rx   d 4 FF 94 FF C4   Length = 0 BitCount = 0 ID = 432
   0.501723 1  5de             Rx   d 8 00 08 00 00 00 00 00 02   Length = 0 BitCount = 0 ID = 1502
   0.507721 1  211             Rx   d 8 82 00 FF FF A9 00 00 C9   Length = 0 BitCount = 0 ID = 529
   0.507721 1  214             Rx   d 2 00 00   Length = 0 BitCount = 0 ID = 532
   0.511718 1  12e             Rx   d 8 CA 7F FF 7F F0 FF FF 00   Length = 0 BitCount = 0 ID = 302
   0.511718 1  90              Rx   d 5 FF 00 00 FF 00   Length = 0 BitCount = 0 ID = 144
   0.511718 1  c6              Rx   d 8 80 3E 80 10 7F E3 A0 AF   Length = 0 BitCount = 0 ID = 198
   0.511718 1  29a             Rx   d 8 00 00 00 00 00 00 00 FF   Length = 0 BitCount = 0 ID = 666
   0.511718 1  2b7             Rx   d 5 00 E0 FF FE 00   Length = 0 BitCount = 0 ID = 695
   0.511718 1  666             Rx   d 4 34 00 00 08   Length = 0 BitCount = 0 ID = 1638
   0.513134 1  5df             Rx   d 3 00 95 00   Length = 0 BitCount = 0 ID = 1503
   0.519308 1  392             Rx   d 5 00 06 00 00 00   Length = 0 BitCount = 0 ID = 914
   0.519308 1  668             Rx   d 2 80 00   Length = 0 BitCount = 0 ID = 1640
   0.521308 1  12e             Rx   d 8 CB 7F FF 7F F0 FF FF 00   Length = 0 BitCount = 0 ID = 302
   0.521308 1  90              Rx   d 5 FF 00 01 B3 00   Length = 0 BitCount = 0 ID = 144
   0.521308 1  c6              Rx   d 8 80 3E 7F F0 7F E3 A2 CE   Length = 0 BitCount = 0 ID = 198
   0.521308 1  242             Rx   d 8 12 80 FF FF FF FF FD 00   Length = 0 BitCount = 0 ID = 578
   0.521308 1  29c             Rx   d 8 00 00 00 00 FF FF 00 00   Length = 0 BitCount = 0 ID = 668
   0.521308 1  352             Rx   d 4 5C 00 00 FF   Length = 0 BitCount = 0 ID = 850
   0.525306 1  1b0             Rx   d 4 FF 94 FF C4   Length = 0 BitCount = 0 ID = 432
   0.525306 1  657             Rx   d 2 C0 CC   Length = 0 BitCount = 0 ID = 1623
   0.527305 1  211             Rx   d 8 82 00 FF FF A9 00 00 C9   Length = 0 BitCount = 0 ID = 529
   0.527305 1  214             Rx   d 2 00 00   Length = 0 BitCount = 0 ID = 532
   0.531303 1  12e             Rx   d 8 CB 7F FF 7F F0 FF FF 00   Length = 0 BitCount = 0 ID = 302
   0.531303 1  90              Rx   d 5 FF 00 02 67 00   Length = 0 BitCount = 0 ID = 144
   0.531303 1  c6              Rx   d 8 80 3E 80 10 7F E3 A4 AB   Length = 0 BitCount = 0 ID = 198
   0.531303 1  29a             Rx   d 8 00 00 00 00 00 00 01 FE   Length = 0 BitCount = 0 ID = 666
   0.531303 1  2b7             Rx   d 5 00 E0 FF FE 00   Length = 0 BitCount = 0 ID = 695
   0.535301 1  4ac             Rx   d 5 83 6E 2A 00 80   Length = 0 BitCount = 0 ID = 1196
   0.535301 1  45c             Rx   d 6 00 00 00 00 FF E0   Length = 0 BitCount = 0 ID = 1116
   0.541296 1  12e             Rx   d 8 CA 80 00 7F F0 FF FF 00   Length = 0 BitCount = 0 ID = 302
   0.541296 1  90              Rx   d 5 FF 00 03 2B 00   Length = 0 BitCount = 0 ID = 144
   0.541296 1  c6              Rx   d 8 80 3E 7F F0 7F E3 A6 CA   Length = 0 BitCount = 0 ID = 198
   0.541296 1  242             Rx   d 8 12 80 FF FF FF FF FD 00   Length = 0 BitCount = 0 ID = 578
   0.541296 1  29c             Rx   d 8 00 00 00 00 FF FF 00 00   Length = 0 BitCount = 0 ID = 668
   0.541296 1  354             Rx   d 8 00 00 00 00 00 00 00 00   Length = 0 BitCount = 0 ID = 852
   0.547292 1  1b0             Rx   d 4 FF 94 FF C4   Length = 0 BitCount = 0 ID = 432
   0.547292 1  211             Rx   d 8 82 00 FF FF A9 00 00 C9   Length = 0 BitCount = 0 ID = 529
   0.549290 1  214             Rx   d 2 00 00   Length = 0 BitCount = 0 ID = 532
   0.549290 1  218             Rx   d 1 98   Length = 0 BitCount = 0 ID = 536
   0.549290 1  4fa             Rx   d 2 08 00   Length = 0 BitCount = 0 ID = 1274
   0.549290 1  671             Rx   d 2 02 00   Length = 0 BitCount = 0 ID = 1649
   0.549290 1  12e             Rx   d 8 CA 80 00 7F F0 FF FF 00   Length = 0 BitCount = 0 ID = 302
   0.549290 1  90              Rx   d 5 FF 00 04 D2 00   Length = 0 BitCount = 0 ID = 144
   0.549290 1  c6              Rx   d 8 80 3E 80 00 7F E3 A8 B7   Length = 0 BitCount = 0 ID = 198
   0.549290 1  29a             Rx   d 8 00 00 00 00 00 00 02 FD   Length = 0 BitCount = 0 ID = 666
   0.549290 1  2b7             Rx   d 5 00 E0 FF FE 00   Length = 0 BitCount = 0 ID = 695
   0.561282 1  12e             Rx   d 8 CA 80 00 7F F0 FF FF 00   Length = 0 BitCount = 0 ID = 302
   0.561282 1  90              Rx   d 5 FF 00 05 9E 00   Length = 0 BitCount = 0 ID = 144
   0.561282 1  c6              Rx   d 8 80 3E 80 08 7F E3 AA AD   Length = 0 BitCount = 0 ID = 198
   0.561282 1  242             Rx   d 8 12 80 FF FF FF FF FD 00   Length = 0 BitCount = 0 ID = 578
   0.561282 1  29c             Rx   d 8 00 00 00 00 FF FF 00 00   Length = 0 BitCount = 0 ID = 668
   0.561282 1  352             Rx   d 4 5C 00 00 FF   Length = 0 BitCount = 0 ID = 850
   0.580044 1  1b0             Rx   d 4 FF 94 FF C4   Length = 0 BitCount = 0 ID = 432
   0.595668 1  211             Rx   d 8 82 00 FF FF A9 00 00 C9   Length = 0 BitCount = 0 ID = 529
   0.595668 1  392             Rx   d 5 00 06 00 00 00   Length = 0 BitCount = 0 ID = 914
   0.595668 1  214             Rx   d 2 00 00   Length = 0 BitCount = 0 ID = 532
   0.595668 1  12e             Rx   d 8 CA 80 00 7F F0 FF FF 00   Length = 0 BitCount = 0 ID = 302
   0.595668 1  90              Rx   d 5 FF 00 06 4A 00   Length = 0 BitCount = 0 ID = 144
   0.595668 1  c6              Rx   d 8 80 3E 7F F8 7F E3 AC BC   Length = 0 BitCount = 0 ID = 198
   0.595668 1  29a             Rx   d 8 00 00 00 00 00 00 03 FC   Length = 0 BitCount = 0 ID = 666
   0.595668 1  2b7             Rx   d 5 00 E0 FF FE 00   Length = 0 BitCount = 0 ID = 695
   0.595668 1  12e             Rx   d 8 CA 80 00 7F F0 FF FF 00   Length = 0 BitCount = 0 ID = 302
   0.595668 1  90              Rx   d 5 FF 00 07 06 00   Length = 0 BitCount = 0 ID = 144
   0.595668 1  c6              Rx   d 8 80 3E 80 10 7F E3 AE A1   Length = 0 BitCount = 0 ID = 198
   0.595668 1  242             Rx   d 8 12 80 FF FF FF FF FD 00   Length = 0 BitCount = 0 ID = 578
   0.595668 1  29c             Rx   d 8 00 00 00 00 FF FF 00 00   Length = 0 BitCount = 0 ID = 668
   0.595668 1  354             Rx   d 8 00 00 00 00 00 00 00 00   Length = 0 BitCount = 0 ID = 852
   0.595668 1  4f8             Rx   d 8 94 C0 00 00 00 00 00 00   Length = 0 BitCount = 0 ID = 1272
   0.611291 1  350             Rx   d 8 C3 2F 3A F1 14 14 A4 85   Length = 0 BitCount = 0 ID = 848
   0.611291 1  1b0             Rx   d 4 FF 94 FF C4   Length = 0 BitCount = 0 ID = 432
   0.611291 1  4de             Rx   d 3 C0 00 00   Length = 0 BitCount = 0 ID = 1246
   0.611291 1  55d             Rx   d 8 00 FD 50 C0 91 80 00 00   Length = 0 BitCount = 0 ID = 1373
   0.611291 1  211             Rx   d 8 82 00 FF FF A9 00 00 C9   Length = 0 BitCount = 0 ID = 529
   0.611291 1  214             Rx   d 2 00 00   Length = 0 BitCount = 0 ID = 532
   0.611291 1  12e             Rx   d 8 CA 80 00 7F F0 FF FF 00   Length = 0 BitCount = 0 ID = 302
   0.611291 1  90              Rx   d 5 FF 00 08 A5 00   Length = 0 BitCount = 0 ID = 144
   0.611291 1  c6              Rx   d 8 80 3E 7F F8 7F E3 B0 B8   Length = 0 BitCount = 0 ID = 198
   0.611291 1  29a             Rx   d 8 00 00 00 00 00 00 04 FB   Length = 0 BitCount = 0 ID = 666
