date Mon Apr 13 08:05:47.582 pm 2026
base hex  timestamps absolute
internal events logged
// version 8.5.0
Begin Triggerblock Mon Apr 13 08:05:47.582 pm 2026
   0.000000 Start of measurement
   0.000000 1  4f8             Rx   d 8 94 C0 00 00 00 00 00 00   Length = 0 BitCount = 0 ID = 1272
   0.004609 1  6fb             Rx   d 8 0F 03 FF 00 FF 00 00 FF   Length = 0 BitCount = 0 ID = 1787
   0.011170 1  3b7             Rx   d 6 00 00 7F C0 00 C0   Length = 0 BitCount = 0 ID = 951
   0.024840 1  646             Rx   d 8 00 00 00 00 00 00 00 0C   Length = 0 BitCount = 0 ID = 1606
   0.044141 1  5ce             Rx   d 3 FE FF 00   Length = 0 BitCount = 0 ID = 1486
   0.102443 1  4f8             Rx   d 8 54 C0 00 00 00 00 00 00   Length = 0 BitCount = 0 ID = 1272
   0.114689 1  3b7             Rx   d 6 00 00 7F C0 00 C0   Length = 0 BitCount = 0 ID = 951
   0.135112 1  350             Rx   d 8 C3 2F 3A F0 18 70 A4 09   Length = 0 BitCount = 0 ID = 848
   0.135112 1  211             Rx   d 8 82 00 FF FF A9 00 00 A5   Length = 0 BitCount = 0 ID = 529
   0.135112 1  214             Rx   d 2 FB FE   Length = 0 BitCount = 0 ID = 532
   0.135112 1  218             Rx   d 1 98   Length = 0 BitCount = 0 ID = 536
   0.135112 1  4fa             Rx   d 2 08 00   Length = 0 BitCount = 0 ID = 1274
   0.135112 1  671             Rx   d 2 02 00   Length = 0 BitCount = 0 ID = 1649
   0.163055 1  211             Rx   d 8 82 00 FF FF A9 00 00 B5   Length = 0 BitCount = 0 ID = 529
   0.163055 1  214             Rx   d 2 FB FE   Length = 0 BitCount = 0 ID = 532
   0.179760 1  211             Rx   d 8 82 00 FF FF A9 00 00 BF   Length = 0 BitCount = 0 ID = 529
   0.179760 1  214             Rx   d 2 FB FE   Length = 0 BitCount = 0 ID = 532
   0.184627 1  350             Rx   d 8 C2 2F 3A F0 18 70 A4 09   Length = 0 BitCount = 0 ID = 848
   0.184627 1  1b0             Rx   d 4 FF 00 FF C0   Length = 0 BitCount = 0 ID = 432
   0.184627 1  4de             Rx   d 3 C0 00 00   Length = 0 BitCount = 0 ID = 1246
   0.184627 1  55d             Rx   d 8 F8 FC 00 C0 90 80 00 00   Length = 0 BitCount = 0 ID = 1373
   0.194670 1  4f8             Rx   d 8 54 C0 00 00 00 00 00 00   Length = 0 BitCount = 0 ID = 1272
   0.194670 1  211             Rx   d 8 82 00 FF FF A9 00 00 C5   Length = 0 BitCount = 0 ID = 529
   0.194670 1  214             Rx   d 2 FB FE   Length = 0 BitCount = 0 ID = 532
   0.205076 1  1b0             Rx   d 4 FF 00 FF C0   Length = 0 BitCount = 0 ID = 432
   0.205076 1  55d             Rx   d 8 00 FC 50 C0 90 80 00 00   Length = 0 BitCount = 0 ID = 1373
   0.205076 1  5de             Rx   d 8 00 00 00 00 00 00 00 00   Length = 0 BitCount = 0 ID = 1502
   0.205076 1  5df             Rx   d 3 00 14 00   Length = 0 BitCount = 0 ID = 1503
   0.214633 1  3b7             Rx   d 6 00 00 7F C0 00 C0   Length = 0 BitCount = 0 ID = 951
   0.214633 1  211             Rx   d 8 82 00 FF FF A9 00 00 C9   Length = 0 BitCount = 0 ID = 529
   0.214633 1  214             Rx   d 2 FB FE   Length = 0 BitCount = 0 ID = 532
   0.214633 1  350             Rx   d 8 C2 2F 3A F0 18 10 A4 09   Length = 0 BitCount = 0 ID = 848
   0.214633 1  1b0             Rx   d 4 FF 00 FF C0   Length = 0 BitCount = 0 ID = 432
   0.214633 1  392             Rx   d 5 FF 00 FF F0 00   Length = 0 BitCount = 0 ID = 914
   0.214633 1  657             Rx   d 2 C0 CC   Length = 0 BitCount = 0 ID = 1623
   0.214633 1  668             Rx   d 2 00 00   Length = 0 BitCount = 0 ID = 1640
   0.214633 1  699             Rx   d 8 00 00 03 00 3F 00 00 00   Length = 0 BitCount = 0 ID = 1689
   0.214633 1  69f             Rx   d 4 06 50 85 9F   Length = 0 BitCount = 0 ID = 1695
   0.226717 1  4ac             Rx   d 5 83 75 2A 00 80   Length = 0 BitCount = 0 ID = 1196
   0.226717 1  45c             Rx   d 6 00 00 00 00 FF E0   Length = 0 BitCount = 0 ID = 1116
   0.232712 1  12e             Rx   d 8 FF FF FF FF F0 FF FF 00   Length = 0 BitCount = 0 ID = 302
   0.232712 1  90              Rx   d 5 FF 00 00 FF 00   Length = 0 BitCount = 0 ID = 144
   0.232712 1  c6              Rx   d 8 FF FF FF FF FF FF 40 C5   Length = 0 BitCount = 0 ID = 198
   0.232712 1  211             Rx   d 8 82 00 FF FF A9 00 00 CC   Length = 0 BitCount = 0 ID = 529
   0.232712 1  29a             Rx   d 8 FF FF FF FF FF FF 00 05   Length = 0 BitCount = 0 ID = 666
   0.232712 1  2b7             Rx   d 5 00 E0 FF FE 00   Length = 0 BitCount = 0 ID = 695
   0.232712 1  214             Rx   d 2 FB FE   Length = 0 BitCount = 0 ID = 532
   0.232712 1  218             Rx   d 1 98   Length = 0 BitCount = 0 ID = 536
   0.232712 1  4fa             Rx   d 2 08 00   Length = 0 BitCount = 0 ID = 1274
   0.232712 1  671             Rx   d 2 02 00   Length = 0 BitCount = 0 ID = 1649
   0.236711 1  1b0             Rx   d 4 FF 00 FF C0   Length = 0 BitCount = 0 ID = 432
   0.240708 1  12e             Rx   d 8 FF FF FF FF F0 FF FF 00   Length = 0 BitCount = 0 ID = 302
   0.240708 1  90              Rx   d 5 FF 00 01 B3 00   Length = 0 BitCount = 0 ID = 144
   0.242706 1  c6              Rx   d 8 FF FF FF FF FF FF 42 C3   Length = 0 BitCount = 0 ID = 198
   0.242706 1  242             Rx   d 8 00 00 FF EF FE 00 0D 00   Length = 0 BitCount = 0 ID = 578
   0.242706 1  29c             Rx   d 8 FF FF FF FF FF FF FF FF   Length = 0 BitCount = 0 ID = 668
   0.242706 1  352             Rx   d 4 5C 00 00 FF   Length = 0 BitCount = 0 ID = 850
   0.246704 1  699             Rx   d 8 00 00 02 00 3F 00 00 00   Length = 0 BitCount = 0 ID = 1689
   0.252701 1  12e             Rx   d 8 FF FF FF FF F0 FF FF 00   Length = 0 BitCount = 0 ID = 302
   0.252701 1  90              Rx   d 5 FF 00 02 67 00   Length = 0 BitCount = 0 ID = 144
   0.252701 1  c6              Rx   d 8 FF FF FF FF FF FF 44 C1   Length = 0 BitCount = 0 ID = 198
   0.252701 1  211             Rx   d 8 82 00 FF FF A9 00 00 CE   Length = 0 BitCount = 0 ID = 529
   0.252701 1  29a             Rx   d 8 FF FF FF FF FF FF 01 04   Length = 0 BitCount = 0 ID = 666
   0.252701 1  2b7             Rx   d 5 00 E0 FF FE 00   Length = 0 BitCount = 0 ID = 695
   0.252701 1  214             Rx   d 2 FB FE   Length = 0 BitCount = 0 ID = 532
   0.252701 1  5d7             Rx   d 7 FF FF 08 12 52 00 C0   Length = 0 BitCount = 0 ID = 1495
   0.256697 1  1b0             Rx   d 4 FF 00 FF C0   Length = 0 BitCount = 0 ID = 432
   0.260696 1  392             Rx   d 5 FF 00 FF F0 00   Length = 0 BitCount = 0 ID = 914
   0.260696 1  12e             Rx   d 8 FF FF FF FF F0 FF FF 00   Length = 0 BitCount = 0 ID = 302
   0.260696 1  90              Rx   d 5 FF 00 03 2B 00   Length = 0 BitCount = 0 ID = 144
   0.260696 1  c6              Rx   d 8 FF FF FF FF FF FF 46 BF   Length = 0 BitCount = 0 ID = 198
   0.260696 1  242             Rx   d 8 00 00 FF EF FE 00 0D 00   Length = 0 BitCount = 0 ID = 578
   0.260696 1  29c             Rx   d 8 FF FF FF FF FF FF FF FF   Length = 0 BitCount = 0 ID = 668
   0.260696 1  354             Rx   d 8 FF FF 00 00 00 00 00 00   Length = 0 BitCount = 0 ID = 852
   0.270689 1  12e             Rx   d 8 FF FF FF FF F0 FF FF 00   Length = 0 BitCount = 0 ID = 302
   0.270689 1  90              Rx   d 5 FF 00 04 D2 00   Length = 0 BitCount = 0 ID = 144
   0.270689 1  c6              Rx   d 8 FF FF FF FF FF FF 48 BD   Length = 0 BitCount = 0 ID = 198
   0.270689 1  211             Rx   d 8 82 00 FF FF A9 00 00 CF   Length = 0 BitCount = 0 ID = 529
   0.270689 1  29a             Rx   d 8 FF FF FF FF FF FF 02 03   Length = 0 BitCount = 0 ID = 666
   0.270689 1  2b7             Rx   d 5 00 E0 FF FE 00   Length = 0 BitCount = 0 ID = 695
   0.270689 1  214             Rx   d 2 FB FE   Length = 0 BitCount = 0 ID = 532
   0.270689 1  666             Rx   d 4 34 80 00 08   Length = 0 BitCount = 0 ID = 1638
   0.276686 1  350             Rx   d 8 C2 2F 3A F0 18 10 A4 09   Length = 0 BitCount = 0 ID = 848
   0.276686 1  1b0             Rx   d 4 FF 00 FF C0   Length = 0 BitCount = 0 ID = 432
   0.276686 1  4de             Rx   d 3 C0 00 00   Length = 0 BitCount = 0 ID = 1246
   0.276686 1  55d             Rx   d 8 00 FC 50 C0 90 80 00 00   Length = 0 BitCount = 0 ID = 1373
   0.282682 1  12e             Rx   d 8 FF FF FF FF F0 FF FF 00   Length = 0 BitCount = 0 ID = 302
   0.282682 1  90              Rx   d 5 FF 00 05 9E 00   Length = 0 BitCount = 0 ID = 144
   0.282682 1  c6              Rx   d 8 FF FF FF FF FF FF 4A BB   Length = 0 BitCount = 0 ID = 198
   0.282682 1  242             Rx   d 8 00 00 FF EF FE 00 0D 00   Length = 0 BitCount = 0 ID = 578
   0.282682 1  29c             Rx   d 8 FF FF FF FF FF FF 00 00   Length = 0 BitCount = 0 ID = 668
   0.282682 1  352             Rx   d 4 5C 00 00 FF   Length = 0 BitCount = 0 ID = 850
   0.292676 1  4f8             Rx   d 8 54 C0 00 00 00 00 00 00   Length = 0 BitCount = 0 ID = 1272
   0.292676 1  12e             Rx   d 8 FF FF FF FF F0 FF FF 00   Length = 0 BitCount = 0 ID = 302
   0.292676 1  90              Rx   d 5 FF 00 06 4A 00   Length = 0 BitCount = 0 ID = 144
   0.292676 1  c6              Rx   d 8 FF FF FF FF FF FF 4C B9   Length = 0 BitCount = 0 ID = 198
   0.292676 1  211             Rx   d 8 82 00 FF FF A9 00 00 CF   Length = 0 BitCount = 0 ID = 529
   0.292676 1  29a             Rx   d 8 00 00 00 00 00 00 03 FC   Length = 0 BitCount = 0 ID = 666
   0.292676 1  2b7             Rx   d 5 00 E0 FF FE 00   Length = 0 BitCount = 0 ID = 695
   0.292676 1  214             Rx   d 2 FB FE   Length = 0 BitCount = 0 ID = 532
   0.296673 1  1b0             Rx   d 4 FF 00 FF C0   Length = 0 BitCount = 0 ID = 432
   0.296673 1  5de             Rx   d 8 00 00 00 00 00 00 00 00   Length = 0 BitCount = 0 ID = 1502
   0.300670 1  12e             Rx   d 8 FF FF FF FF F0 FF FF 00   Length = 0 BitCount = 0 ID = 302
   0.300670 1  90              Rx   d 5 FF 00 07 06 00   Length = 0 BitCount = 0 ID = 144
   0.300670 1  c6              Rx   d 8 FF FF FF FF FF FF 4E B7   Length = 0 BitCount = 0 ID = 198
   0.300670 1  242             Rx   d 8 00 00 FF EF FE 00 0D 00   Length = 0 BitCount = 0 ID = 578
   0.300670 1  29c             Rx   d 8 00 00 00 00 FF FF 00 00   Length = 0 BitCount = 0 ID = 668
   0.300670 1  354             Rx   d 8 00 00 00 00 00 00 00 00   Length = 0 BitCount = 0 ID = 852
   0.306667 1  5df             Rx   d 3 00 14 00   Length = 0 BitCount = 0 ID = 1503
   0.310665 1  3b7             Rx   d 6 00 00 7F C0 00 C0   Length = 0 BitCount = 0 ID = 951
   0.310665 1  392             Rx   d 5 FF 00 FF F0 00   Length = 0 BitCount = 0 ID = 914
   0.310665 1  668             Rx   d 2 00 00   Length = 0 BitCount = 0 ID = 1640
   0.312664 1  12e             Rx   d 8 FF FF FF FF F0 FF FF 00   Length = 0 BitCount = 0 ID = 302
   0.312664 1  90              Rx   d 5 FF 00 08 A5 00   Length = 0 BitCount = 0 ID = 144
   0.312664 1  c6              Rx   d 8 FF FF FF FF FF FF 50 B5   Length = 0 BitCount = 0 ID = 198
   0.312664 1  211             Rx   d 8 82 00 FF FF A9 00 00 D0   Length = 0 BitCount = 0 ID = 529
   0.312664 1  29a             Rx   d 8 00 00 00 00 00 00 04 FB   Length = 0 BitCount = 0 ID = 666
   0.312664 1  2b7             Rx   d 5 00 E0 FF FE 00   Length = 0 BitCount = 0 ID = 695
   0.312664 1  214             Rx   d 2 FB FE   Length = 0 BitCount = 0 ID = 532
   0.316661 1  1b0             Rx   d 4 FF 00 FF C0   Length = 0 BitCount = 0 ID = 432
   0.316661 1  657             Rx   d 2 C0 CC   Length = 0 BitCount = 0 ID = 1623
   0.329567 1  12e             Rx   d 8 FF FF FF FF F0 FF FF 00   Length = 0 BitCount = 0 ID = 302
   0.329567 1  90              Rx   d 5 FF 00 09 E9 00   Length = 0 BitCount = 0 ID = 144
   0.329567 1  c6              Rx   d 8 80 3D 80 00 7F E3 B2 AE   Length = 0 BitCount = 0 ID = 198
   0.329567 1  242             Rx   d 8 00 00 FF EF FE 00 0D 00   Length = 0 BitCount = 0 ID = 578
   0.329567 1  29c             Rx   d 8 00 00 00 00 FF FF 00 00   Length = 0 BitCount = 0 ID = 668
   0.329567 1  352             Rx   d 4 5C 00 00 FF   Length = 0 BitCount = 0 ID = 850
   0.329567 1  4ac             Rx   d 5 83 75 2A 00 80   Length = 0 BitCount = 0 ID = 1196
   0.329567 1  45c             Rx   d 6 00 00 00 00 FF E0   Length = 0 BitCount = 0 ID = 1116
   0.344676 1  12e             Rx   d 8 FF FF FF FF F0 FF FF 00   Length = 0 BitCount = 0 ID = 302
   0.344676 1  90              Rx   d 5 FF 00 0A 3D 00   Length = 0 BitCount = 0 ID = 144
   0.344676 1  c6              Rx   d 8 80 3D 7F F0 7F E3 B4 BD   Length = 0 BitCount = 0 ID = 198
   0.344676 1  211             Rx   d 8 82 00 FF FF A9 00 00 D0   Length = 0 BitCount = 0 ID = 529
   0.344676 1  29a             Rx   d 8 00 00 00 00 00 00 05 FA   Length = 0 BitCount = 0 ID = 666
   0.344676 1  214             Rx   d 2 FB FE   Length = 0 BitCount = 0 ID = 532
   0.344676 1  2b7             Rx   d 5 00 E0 FF FE 00   Length = 0 BitCount = 0 ID = 695
   0.344676 1  218             Rx   d 1 98   Length = 0 BitCount = 0 ID = 536
   0.344676 1  4fa             Rx   d 2 08 00   Length = 0 BitCount = 0 ID = 1274
   0.344676 1  671             Rx   d 2 02 00   Length = 0 BitCount = 0 ID = 1649
   0.344676 1  1b0             Rx   d 4 FF 00 FF C0   Length = 0 BitCount = 0 ID = 432
   0.344676 1  12e             Rx   d 8 FF FF FF FF F0 FF FF 00   Length = 0 BitCount = 0 ID = 302
   0.344676 1  90              Rx   d 5 FF 00 0B 71 00   Length = 0 BitCount = 0 ID = 144
   0.344676 1  c6              Rx   d 8 80 3D 80 08 7F E3 B6 A2   Length = 0 BitCount = 0 ID = 198
   0.344676 1  242             Rx   d 8 00 00 FF EF FE 00 0D 00   Length = 0 BitCount = 0 ID = 578
   0.344676 1  29c             Rx   d 8 00 00 00 00 FF FF 00 00   Length = 0 BitCount = 0 ID = 668
   0.344676 1  354             Rx   d 8 00 00 00 00 00 00 00 00   Length = 0 BitCount = 0 ID = 852
   0.369824 1  12e             Rx   d 8 FF FF FF FF F0 FF FF 00   Length = 0 BitCount = 0 ID = 302
   0.369824 1  90              Rx   d 5 FF 00 0C 88 00   Length = 0 BitCount = 0 ID = 144
   0.369824 1  c6              Rx   d 8 80 3D 80 08 7F E3 B8 A0   Length = 0 BitCount = 0 ID = 198
   0.369824 1  211             Rx   d 8 82 00 FF FF A9 00 00 D0   Length = 0 BitCount = 0 ID = 529
   0.369824 1  29a             Rx   d 8 00 00 00 00 00 00 06 F9   Length = 0 BitCount = 0 ID = 666
   0.369824 1  214             Rx   d 2 FB FE   Length = 0 BitCount = 0 ID = 532
   0.369824 1  2b7             Rx   d 5 00 E0 FF FE 00   Length = 0 BitCount = 0 ID = 695
   0.369824 1  5d7             Rx   d 7 00 00 08 12 52 00 C0   Length = 0 BitCount = 0 ID = 1495
   0.369824 1  1b0             Rx   d 4 FF 00 FF C0   Length = 0 BitCount = 0 ID = 432
   0.369824 1  392             Rx   d 5 FF 00 FF F0 00   Length = 0 BitCount = 0 ID = 914
   0.369824 1  12e             Rx   d 8 FF FF FF FF F0 FF FF 00   Length = 0 BitCount = 0 ID = 302
   0.369824 1  90              Rx   d 5 FF 00 0D C4 00   Length = 0 BitCount = 0 ID = 144
   0.369824 1  c6              Rx   d 8 80 3D 7F F0 7F E3 BA B7   Length = 0 BitCount = 0 ID = 198
   0.369824 1  242             Rx   d 8 00 00 FF EF FE 00 0D 00   Length = 0 BitCount = 0 ID = 578
   0.369824 1  29c             Rx   d 8 00 00 00 00 FF FF 00 00   Length = 0 BitCount = 0 ID = 668
   0.369824 1  352             Rx   d 4 5C 00 00 FF   Length = 0 BitCount = 0 ID = 850
   0.369824 1  12e             Rx   d 8 FF FF FF FF F0 FF FF 00   Length = 0 BitCount = 0 ID = 302
   0.369824 1  90              Rx   d 5 FF 00 0E 10 00   Length = 0 BitCount = 0 ID = 144
   0.374868 1  c6              Rx   d 8 80 3D 80 08 7F E3 BC 9C   Length = 0 BitCount = 0 ID = 198
   0.374868 1  211             Rx   d 8 82 00 FF FF A9 00 00 D0   Length = 0 BitCount = 0 ID = 529
   0.374868 1  29a             Rx   d 8 00 00 00 00 00 00 07 F8   Length = 0 BitCount = 0 ID = 666
   0.374868 1  214             Rx   d 2 FB FE   Length = 0 BitCount = 0 ID = 532
   0.374868 1  2b7             Rx   d 5 00 E0 FF FE 00   Length = 0 BitCount = 0 ID = 695
   0.374868 1  666             Rx   d 4 34 80 00 08   Length = 0 BitCount = 0 ID = 1638
   0.374868 1  350             Rx   d 8 C2 2F 3A F0 18 10 A4 09   Length = 0 BitCount = 0 ID = 848
   0.374868 1  1b0             Rx   d 4 FF 00 FF C0   Length = 0 BitCount = 0 ID = 432
   0.374868 1  4de             Rx   d 3 C0 00 00   Length = 0 BitCount = 0 ID = 1246
   0.374868 1  55d             Rx   d 8 00 FC 50 C0 90 80 00 00   Length = 0 BitCount = 0 ID = 1373
   0.404403 1  12e             Rx   d 8 FF FF FF FF F0 FF FF 00   Length = 0 BitCount = 0 ID = 302
   0.404403 1  90              Rx   d 5 FF 00 0F 5C 00   Length = 0 BitCount = 0 ID = 144
   0.404403 1  c6              Rx   d 8 80 3D 80 00 7F E3 BE A2   Length = 0 BitCount = 0 ID = 198
   0.404403 1  242             Rx   d 8 00 00 FF EF FE 00 0D 00   Length = 0 BitCount = 0 ID = 578
   0.404403 1  29c             Rx   d 8 00 00 00 00 FF FF 00 00   Length = 0 BitCount = 0 ID = 668
   0.404403 1  354             Rx   d 8 00 00 00 00 00 00 00 00   Length = 0 BitCount = 0 ID = 852
   0.404403 1  4f8             Rx   d 8 54 C0 00 00 00 00 00 00   Length = 0 BitCount = 0 ID = 1272
   0.404403 1  12e             Rx   d 8 FF FF FF FF F0 FF FF 00   Length = 0 BitCount = 0 ID = 302
   0.404403 1  90              Rx   d 5 FF 00 00 FF 00   Length = 0 BitCount = 0 ID = 144
   0.404403 1  c6              Rx   d 8 80 3D 80 00 7F E3 A0 C0   Length = 0 BitCount = 0 ID = 198
   0.404403 1  211             Rx   d 8 82 00 FF FF A9 00 00 D0   Length = 0 BitCount = 0 ID = 529
   0.404403 1  29a             Rx   d 8 00 00 00 00 00 00 08 F7   Length = 0 BitCount = 0 ID = 666
   0.404403 1  214             Rx   d 2 FB FE   Length = 0 BitCount = 0 ID = 532
   0.404403 1  2b7             Rx   d 5 00 E0 FF FE 00   Length = 0 BitCount = 0 ID = 695
   0.404403 1  1b0             Rx   d 4 FF 00 FF C0   Length = 0 BitCount = 0 ID = 432
   0.404403 1  5de             Rx   d 8 00 00 00 00 00 00 00 00   Length = 0 BitCount = 0 ID = 1502
   0.404403 1  12e             Rx   d 8 FF FF FF FF F0 FF FF 00   Length = 0 BitCount = 0 ID = 302
   0.404403 1  90              Rx   d 5 FF 00 01 B3 00   Length = 0 BitCount = 0 ID = 144
   0.404403 1  c6              Rx   d 8 80 3D 80 00 7F E3 A2 BE   Length = 0 BitCount = 0 ID = 198
   0.404403 1  242             Rx   d 8 00 00 FF EF FE 00 0D 00   Length = 0 BitCount = 0 ID = 578
   0.404403 1  29c             Rx   d 8 00 00 00 00 FF FF 00 00   Length = 0 BitCount = 0 ID = 668
   0.404403 1  352             Rx   d 4 5C 00 00 FF   Length = 0 BitCount = 0 ID = 850
   0.404403 1  5df             Rx   d 3 00 15 00   Length = 0 BitCount = 0 ID = 1503
   0.434956 1  3b7             Rx   d 6 00 00 7F C0 00 C0   Length = 0 BitCount = 0 ID = 951
   0.434956 1  392             Rx   d 5 FF 00 FF F0 00   Length = 0 BitCount = 0 ID = 914
   0.434956 1  668             Rx   d 2 00 00   Length = 0 BitCount = 0 ID = 1640
   0.434956 1  12e             Rx   d 8 FF FF FF FF F0 FF FF 00   Length = 0 BitCount = 0 ID = 302
   0.434956 1  90              Rx   d 5 FF 00 02 67 00   Length = 0 BitCount = 0 ID = 144
   0.434956 1  c6              Rx   d 8 80 3D 80 00 7F E3 A4 BC   Length = 0 BitCount = 0 ID = 198
   0.434956 1  211             Rx   d 8 82 00 FF FF A9 00 00 D0   Length = 0 BitCount = 0 ID = 529
   0.434956 1  29a             Rx   d 8 00 00 00 00 00 00 09 F6   Length = 0 BitCount = 0 ID = 666
   0.434956 1  214             Rx   d 2 FB FE   Length = 0 BitCount = 0 ID = 532
   0.434956 1  2b7             Rx   d 5 00 E0 FF FE 00   Length = 0 BitCount = 0 ID = 695
   0.434956 1  1b0             Rx   d 4 FF 00 FF C0   Length = 0 BitCount = 0 ID = 432
   0.434956 1  657             Rx   d 2 C0 CC   Length = 0 BitCount = 0 ID = 1623
   0.434956 1  12e             Rx   d 8 FF FF FF FF F0 FF FF 00   Length = 0 BitCount = 0 ID = 302
   0.434956 1  90              Rx   d 5 FF 00 03 2B 00   Length = 0 BitCount = 0 ID = 144
   0.434956 1  c6              Rx   d 8 80 3D 80 00 7F E3 A6 BA   Length = 0 BitCount = 0 ID = 198
   0.434956 1  242             Rx   d 8 00 00 FF EF FE 00 0D 00   Length = 0 BitCount = 0 ID = 578
   0.434956 1  29c             Rx   d 8 00 00 00 00 FF FF 00 00   Length = 0 BitCount = 0 ID = 668
   0.434956 1  354             Rx   d 8 00 00 00 00 00 00 00 00   Length = 0 BitCount = 0 ID = 852
   0.434956 1  4ac             Rx   d 5 83 75 2A 00 80   Length = 0 BitCount = 0 ID = 1196
   0.434956 1  45c             Rx   d 6 00 00 00 00 FF E0   Length = 0 BitCount = 0 ID = 1116
   0.434956 1  12e             Rx   d 8 FF FF FF FF F0 FF FF 00   Length = 0 BitCount = 0 ID = 302
   0.434956 1  90              Rx   d 5 FF 00 04 D2 00   Length = 0 BitCount = 0 ID = 144
   0.434956 1  c6              Rx   d 8 80 3D 80 00 7F E3 A8 B8   Length = 0 BitCount = 0 ID = 198
   0.434956 1  211             Rx   d 8 82 00 FF FF A9 00 00 D0   Length = 0 BitCount = 0 ID = 529
   0.434956 1  29a             Rx   d 8 00 00 00 00 00 00 0A F5   Length = 0 BitCount = 0 ID = 666
   0.434956 1  214             Rx   d 2 00 00   Length = 0 BitCount = 0 ID = 532
   0.434956 1  2b7             Rx   d 5 00 E0 FF FE 00   Length = 0 BitCount = 0 ID = 695
   0.434956 1  218             Rx   d 1 98   Length = 0 BitCount = 0 ID = 536
   0.434956 1  4fa             Rx   d 2 08 00   Length = 0 BitCount = 0 ID = 1274
   0.434956 1  671             Rx   d 2 02 00   Length = 0 BitCount = 0 ID = 1649
   0.434956 1  1b0             Rx   d 4 FF 00 FF C0   Length = 0 BitCount = 0 ID = 432
   0.450504 1  12e             Rx   d 8 FF FF FF FF F0 FF FF 00   Length = 0 BitCount = 0 ID = 302
   0.450504 1  90              Rx   d 5 FF 00 05 9E 00   Length = 0 BitCount = 0 ID = 144
   0.450504 1  c6              Rx   d 8 80 3D 80 08 7F E3 AA AE   Length = 0 BitCount = 0 ID = 198
   0.450504 1  242             Rx   d 8 00 00 FF EF FE 00 0D 00   Length = 0 BitCount = 0 ID = 578
   0.450504 1  29c             Rx   d 8 00 00 00 00 FF FF 00 00   Length = 0 BitCount = 0 ID = 668
   0.450504 1  352             Rx   d 4 5C 00 00 FF   Length = 0 BitCount = 0 ID = 850
   0.450504 1  12e             Rx   d 8 FF FF FF FF F0 FF FF 00   Length = 0 BitCount = 0 ID = 302
   0.450504 1  90              Rx   d 5 FF 00 06 4A 00   Length = 0 BitCount = 0 ID = 144
   0.450504 1  c6              Rx   d 8 80 3D 7F F0 7F E3 AC C5   Length = 0 BitCount = 0 ID = 198
   0.450504 1  211             Rx   d 8 82 00 FF FF A9 00 00 D0   Length = 0 BitCount = 0 ID = 529
   0.450504 1  29a             Rx   d 8 00 00 00 00 00 00 0B F4   Length = 0 BitCount = 0 ID = 666
   0.450504 1  214             Rx   d 2 00 00   Length = 0 BitCount = 0 ID = 532
   0.450504 1  2b7             Rx   d 5 00 E0 FF FE 00   Length = 0 BitCount = 0 ID = 695
   0.450504 1  5d7             Rx   d 7 00 00 08 12 52 00 C0   Length = 0 BitCount = 0 ID = 1495
   0.456498 1  1b0             Rx   d 4 FF 00 FF C0   Length = 0 BitCount = 0 ID = 432
   0.462793 1  392             Rx   d 5 FF 00 FF F0 00   Length = 0 BitCount = 0 ID = 914
   0.462793 1  12e             Rx   d 8 C9 80 00 7F F0 FF FF 00   Length = 0 BitCount = 0 ID = 302
   0.462793 1  90              Rx   d 5 FF 00 07 06 00   Length = 0 BitCount = 0 ID = 144
   0.462793 1  c6              Rx   d 8 80 3D 80 10 7F E3 AE A2   Length = 0 BitCount = 0 ID = 198
   0.462793 1  242             Rx   d 8 00 00 FF EF FE 00 0D 00   Length = 0 BitCount = 0 ID = 578
   0.462793 1  29c             Rx   d 8 00 00 00 00 FF FF 00 00   Length = 0 BitCount = 0 ID = 668
   0.462793 1  354             Rx   d 8 00 00 00 00 00 00 00 00   Length = 0 BitCount = 0 ID = 852
   0.467437 1  350             Rx   d 8 C3 2F 3A F0 18 10 A4 89   Length = 0 BitCount = 0 ID = 848
   0.473433 1  12e             Rx   d 8 C9 80 00 7F F0 FF FF 00   Length = 0 BitCount = 0 ID = 302
   0.473433 1  90              Rx   d 5 FF 00 08 A5 00   Length = 0 BitCount = 0 ID = 144
   0.473433 1  c6              Rx   d 8 80 3D 80 00 7F E3 B0 B0   Length = 0 BitCount = 0 ID = 198
   0.473433 1  211             Rx   d 8 82 00 FF FF A9 00 00 D0   Length = 0 BitCount = 0 ID = 529
   0.473433 1  29a             Rx   d 8 00 00 00 00 00 00 0C F3   Length = 0 BitCount = 0 ID = 666
   0.473433 1  214             Rx   d 2 00 00   Length = 0 BitCount = 0 ID = 532
   0.473433 1  2b7             Rx   d 5 00 E0 FF FE 00   Length = 0 BitCount = 0 ID = 695
   0.473433 1  666             Rx   d 4 34 80 00 08   Length = 0 BitCount = 0 ID = 1638
   0.477431 1  350             Rx   d 8 C3 2F 3A F0 18 10 A4 89   Length = 0 BitCount = 0 ID = 848
   0.477431 1  1b0             Rx   d 4 FF 00 FF C0   Length = 0 BitCount = 0 ID = 432
   0.477431 1  4de             Rx   d 3 C0 00 00   Length = 0 BitCount = 0 ID = 1246
   0.477431 1  55d             Rx   d 8 00 FC 50 C0 90 80 00 00   Length = 0 BitCount = 0 ID = 1373
   0.483428 1  12e             Rx   d 8 C9 80 00 7F F0 FF FF 00   Length = 0 BitCount = 0 ID = 302
   0.483428 1  90              Rx   d 5 FF 00 09 E9 00   Length = 0 BitCount = 0 ID = 144
   0.483428 1  c6              Rx   d 8 80 3D 80 00 7F E3 B2 AE   Length = 0 BitCount = 0 ID = 198
   0.483428 1  242             Rx   d 8 00 00 FF EF FE 00 0D 00   Length = 0 BitCount = 0 ID = 578
   0.483428 1  29c             Rx   d 8 00 00 00 00 FF FF 00 00   Length = 0 BitCount = 0 ID = 668
   0.483428 1  352             Rx   d 4 5C 00 00 FF   Length = 0 BitCount = 0 ID = 850
   0.491423 1  4f8             Rx   d 8 54 C0 00 00 00 00 00 00   Length = 0 BitCount = 0 ID = 1272
   0.493421 1  12e             Rx   d 8 C9 80 00 7F F0 FF FF 00   Length = 0 BitCount = 0 ID = 302
   0.493421 1  90              Rx   d 5 FF 00 0A 3D 00   Length = 0 BitCount = 0 ID = 144
   0.493421 1  c6              Rx   d 8 80 3D 80 00 7F E3 B4 AC   Length = 0 BitCount = 0 ID = 198
   0.493421 1  211             Rx   d 8 82 00 FF FF A9 00 00 D0   Length = 0 BitCount = 0 ID = 529
   0.493421 1  29a             Rx   d 8 00 00 00 00 00 00 0D F2   Length = 0 BitCount = 0 ID = 666
   0.493421 1  214             Rx   d 2 00 00   Length = 0 BitCount = 0 ID = 532
   0.493421 1  2b7             Rx   d 5 00 E0 FF FE 00   Length = 0 BitCount = 0 ID = 695
   0.497420 1  1b0             Rx   d 4 FF 00 FF C0   Length = 0 BitCount = 0 ID = 432
   0.497420 1  5de             Rx   d 8 00 00 00 00 00 00 00 02   Length = 0 BitCount = 0 ID = 1502
   0.503415 1  12e             Rx   d 8 CA 80 00 7F F0 FF FF 00   Length = 0 BitCount = 0 ID = 302
   0.503415 1  90              Rx   d 5 FF 00 0B 71 00   Length = 0 BitCount = 0 ID = 144
   0.503415 1  c6              Rx   d 8 80 3D 80 00 7F E3 B6 AA   Length = 0 BitCount = 0 ID = 198
   0.503415 1  242             Rx   d 8 00 00 FF EF FE 00 0D 00   Length = 0 BitCount = 0 ID = 578
   0.503415 1  29c             Rx   d 8 00 00 00 00 FF FF 00 00   Length = 0 BitCount = 0 ID = 668
   0.503415 1  354             Rx   d 8 00 00 00 00 00 00 00 00   Length = 0 BitCount = 0 ID = 852
   0.505413 1  5df             Rx   d 3 00 95 00   Length = 0 BitCount = 0 ID = 1503
   0.511410 1  3b7             Rx   d 6 00 00 7F C0 00 C0   Length = 0 BitCount = 0 ID = 951
   0.511410 1  392             Rx   d 5 FF 00 FF F0 00   Length = 0 BitCount = 0 ID = 914
   0.511410 1  668             Rx   d 2 00 00   Length = 0 BitCount = 0 ID = 1640
   0.511410 1  90              Rx   d 5 FF 00 0C 88 00   Length = 0 BitCount = 0 ID = 144
   0.511410 1  c6              Rx   d 8 80 3D 80 00 7F E3 B8 A8   Length = 0 BitCount = 0 ID = 198
   0.511410 1  12e             Rx   d 8 CA 80 00 7F F0 FF FF 00   Length = 0 BitCount = 0 ID = 302
   0.513410 1  211             Rx   d 8 82 00 FF FF A9 00 00 D0   Length = 0 BitCount = 0 ID = 529
   0.513410 1  29a             Rx   d 8 00 00 00 00 00 00 0E F1   Length = 0 BitCount = 0 ID = 666
   0.513410 1  214             Rx   d 2 00 00   Length = 0 BitCount = 0 ID = 532
   0.513410 1  2b7             Rx   d 5 00 E0 FF FE 00   Length = 0 BitCount = 0 ID = 695
   0.515408 1  1b0             Rx   d 4 FF 00 FF C0   Length = 0 BitCount = 0 ID = 432
   0.515408 1  657             Rx   d 2 C0 CC   Length = 0 BitCount = 0 ID = 1623
   0.521404 1  646             Rx   d 8 00 00 00 02 00 00 00 0C   Length = 0 BitCount = 0 ID = 1606
   0.521404 1  12e             Rx   d 8 CA 80 00 7F F0 FF FF 00   Length = 0 BitCount = 0 ID = 302
   0.521404 1  90              Rx   d 5 FF 00 0D C4 00   Length = 0 BitCount = 0 ID = 144
   0.521404 1  c6              Rx   d 8 80 3D 7F F8 7F E3 BA AF   Length = 0 BitCount = 0 ID = 198
   0.521404 1  242             Rx   d 8 00 00 FF EF FE 00 0D 00   Length = 0 BitCount = 0 ID = 578
   0.521404 1  29c             Rx   d 8 00 00 00 00 FF FF 00 00   Length = 0 BitCount = 0 ID = 668
   0.521404 1  352             Rx   d 4 5C 00 00 FF   Length = 0 BitCount = 0 ID = 850
   0.527400 1  4ac             Rx   d 5 83 75 2A 00 80   Length = 0 BitCount = 0 ID = 1196
   0.527400 1  45c             Rx   d 6 00 00 00 00 FF E0   Length = 0 BitCount = 0 ID = 1116
   0.533397 1  12e             Rx   d 8 CA 80 00 7F F0 FF FF 00   Length = 0 BitCount = 0 ID = 302
   0.533397 1  90              Rx   d 5 FF 00 0E 10 00   Length = 0 BitCount = 0 ID = 144
   0.533397 1  c6              Rx   d 8 80 3D 80 08 7F E3 BC 9C   Length = 0 BitCount = 0 ID = 198
   0.533397 1  211             Rx   d 8 82 00 FF FF A9 00 00 D0   Length = 0 BitCount = 0 ID = 529
   0.533397 1  29a             Rx   d 8 00 00 00 00 00 00 0F F0   Length = 0 BitCount = 0 ID = 666
   0.533397 1  214             Rx   d 2 00 00   Length = 0 BitCount = 0 ID = 532
   0.533397 1  2b7             Rx   d 5 00 E0 FF FE 00   Length = 0 BitCount = 0 ID = 695
   0.533397 1  218             Rx   d 1 98   Length = 0 BitCount = 0 ID = 536
   0.535395 1  4fa             Rx   d 2 08 00   Length = 0 BitCount = 0 ID = 1274
   0.535395 1  671             Rx   d 2 02 00   Length = 0 BitCount = 0 ID = 1649
   0.535395 1  1b0             Rx   d 4 FF 00 FF C0   Length = 0 BitCount = 0 ID = 432
   0.543394 1  12e             Rx   d 8 CA 80 00 7F F0 FF FF 00   Length = 0 BitCount = 0 ID = 302
   0.543394 1  90              Rx   d 5 FF 00 0F 5C 00   Length = 0 BitCount = 0 ID = 144
   0.543394 1  c6              Rx   d 8 80 3D 7F E7 7F E3 BE BC   Length = 0 BitCount = 0 ID = 198
   0.543394 1  242             Rx   d 8 00 00 FF EF FE 00 0D 00   Length = 0 BitCount = 0 ID = 578
   0.543394 1  29c             Rx   d 8 00 00 00 00 FF FF 00 00   Length = 0 BitCount = 0 ID = 668
   0.543394 1  354             Rx   d 8 00 00 00 00 00 00 00 00   Length = 0 BitCount = 0 ID = 852
   0.553383 1  12e             Rx   d 8 CA 80 00 7F F0 FF FF 00   Length = 0 BitCount = 0 ID = 302
   0.553383 1  90              Rx   d 5 FF 00 00 FF 00   Length = 0 BitCount = 0 ID = 144
   0.553383 1  c6              Rx   d 8 80 3D 80 19 7F E3 A0 A7   Length = 0 BitCount = 0 ID = 198
   0.553383 1  211             Rx   d 8 82 00 FF FF A9 00 00 D0   Length = 0 BitCount = 0 ID = 529
   0.553383 1  29a             Rx   d 8 00 00 00 00 00 00 00 FF   Length = 0 BitCount = 0 ID = 666
   0.553383 1  214             Rx   d 2 00 00   Length = 0 BitCount = 0 ID = 532
   0.553383 1  2b7             Rx   d 5 00 E0 FF FE 00   Length = 0 BitCount = 0 ID = 695
   0.553383 1  5d7             Rx   d 7 00 00 08 12 52 00 C0   Length = 0 BitCount = 0 ID = 1495
   0.555383 1  1b0             Rx   d 4 FF 00 FF C0   Length = 0 BitCount = 0 ID = 432
   0.561379 1  392             Rx   d 5 FF 00 FF F0 00   Length = 0 BitCount = 0 ID = 914
   0.561379 1  12e             Rx   d 8 CB 80 02 7F F0 FF FF 00   Length = 0 BitCount = 0 ID = 302
   0.561379 1  90              Rx   d 5 FF 00 01 B3 00   Length = 0 BitCount = 0 ID = 144
   0.561379 1  c6              Rx   d 8 80 3D 80 00 7F E3 A2 BE   Length = 0 BitCount = 0 ID = 198
   0.561379 1  242             Rx   d 8 00 00 FF EF FE 00 0D 00   Length = 0 BitCount = 0 ID = 578
   0.561379 1  29c             Rx   d 8 00 00 00 00 FF FF 00 00   Length = 0 BitCount = 0 ID = 668
   0.561379 1  352             Rx   d 4 5C 00 00 FF   Length = 0 BitCount = 0 ID = 850
   0.573375 1  12e             Rx   d 8 CB 80 02 7F F0 FF FF 00   Length = 0 BitCount = 0 ID = 302
   0.573375 1  90              Rx   d 5 FF 00 02 67 00   Length = 0 BitCount = 0 ID = 144
   0.573375 1  c6              Rx   d 8 80 3D 80 00 7F E3 A4 BC   Length = 0 BitCount = 0 ID = 198
   0.573375 1  211             Rx   d 8 82 00 FF FF A9 00 00 D0   Length = 0 BitCount = 0 ID = 529
   0.573375 1  29a             Rx   d 8 00 00 00 00 00 00 01 FE   Length = 0 BitCount = 0 ID = 666
   0.573375 1  214             Rx   d 2 00 00   Length = 0 BitCount = 0 ID = 532
   0.573375 1  2b7             Rx   d 5 00 E0 FF FE 00   Length = 0 BitCount = 0 ID = 695
   0.573375 1  666             Rx   d 4 34 80 00 08   Length = 0 BitCount = 0 ID = 1638
   0.577369 1  350             Rx   d 8 C3 2F 3A F0 18 10 A4 89   Length = 0 BitCount = 0 ID = 848
   0.577369 1  1b0             Rx   d 4 FF 00 FF C0   Length = 0 BitCount = 0 ID = 432
   0.577369 1  4de             Rx   d 3 C0 00 00   Length = 0 BitCount = 0 ID = 1246
   0.577369 1  55d             Rx   d 8 00 FC 50 C0 90 80 00 00   Length = 0 BitCount = 0 ID = 1373
   0.583369 1  12e             Rx   d 8 CA 80 01 7F F0 FF FF 00   Length = 0 BitCount = 0 ID = 302
   0.583369 1  90              Rx   d 5 FF 00 03 2B 00   Length = 0 BitCount = 0 ID = 144
   0.583369 1  c6              Rx   d 8 80 3D 7F F8 7F E3 A6 C3   Length = 0 BitCount = 0 ID = 198
   0.583369 1  242             Rx   d 8 00 00 FF EF FE 00 0D 00   Length = 0 BitCount = 0 ID = 578
   0.583369 1  29c             Rx   d 8 00 00 00 00 FF FF 00 00   Length = 0 BitCount = 0 ID = 668
   0.583369 1  354             Rx   d 8 00 00 00 00 00 00 00 00   Length = 0 BitCount = 0 ID = 852
   0.604301 1  4f8             Rx   d 8 54 C0 00 00 00 00 00 00   Length = 0 BitCount = 0 ID = 1272
   0.604301 1  12e             Rx   d 8 CA 80 01 7F F0 FF FF 00   Length = 0 BitCount = 0 ID = 302
   0.604301 1  90              Rx   d 5 FF 00 04 D2 00   Length = 0 BitCount = 0 ID = 144
   0.604301 1  c6              Rx   d 8 80 3D 80 00 7F E3 A8 B8   Length = 0 BitCount = 0 ID = 198
   0.604301 1  211             Rx   d 8 82 00 FF FF A9 00 00 D0   Length = 0 BitCount = 0 ID = 529
   0.604301 1  29a             Rx   d 8 00 00 00 00 00 00 02 FD   Length = 0 BitCount = 0 ID = 666
   0.604301 1  214             Rx   d 2 00 00   Length = 0 BitCount = 0 ID = 532
   0.604301 1  2b7             Rx   d 5 00 E0 FF FE 00   Length = 0 BitCount = 0 ID = 695
   0.604301 1  1b0             Rx   d 4 FF 00 FF C0   Length = 0 BitCount = 0 ID = 432
   0.604301 1  5de             Rx   d 8 00 00 00 00 00 00 00 02   Length = 0 BitCount = 0 ID = 1502
   0.604301 1  12e             Rx   d 8 CA 80 00 7F F0 FF FF 00   Length = 0 BitCount = 0 ID = 302
   0.604301 1  90              Rx   d 5 FF 00 05 9E 00   Length = 0 BitCount = 0 ID = 144
   0.604301 1  c6              Rx   d 8 80 3D 80 00 7F E3 AA B6   Length = 0 BitCount = 0 ID = 198
   0.604301 1  242             Rx   d 8 00 00 FF EF FE 00 0D 00   Length = 0 BitCount = 0 ID = 578
   0.604301 1  29c             Rx   d 8 00 00 00 00 FF FF 00 00   Length = 0 BitCount = 0 ID = 668
   0.604301 1  352             Rx   d 4 5C 00 00 FF   Length = 0 BitCount = 0 ID = 850
   0.604301 1  5df             Rx   d 3 00 95 00   Length = 0 BitCount = 0 ID = 1503
   0.619931 1  3b7             Rx   d 6 00 00 7F C0 00 C0   Length = 0 BitCount = 0 ID = 951
   0.619931 1  392             Rx   d 5 FF 00 FF F0 00   Length = 0 BitCount = 0 ID = 914
   0.619931 1  668             Rx   d 2 00 00   Length = 0 BitCount = 0 ID = 1640
   0.619931 1  12e             Rx   d 8 CA 80 00 7F F0 FF FF 00   Length = 0 BitCount = 0 ID = 302
   0.619931 1  90              Rx   d 5 FF 00 06 4A 00   Length = 0 BitCount = 0 ID = 144
   0.619931 1  c6              Rx   d 8 80 3D 80 08 7F E3 AC AC   Length = 0 BitCount = 0 ID = 198
   0.619931 1  211             Rx   d 8 82 00 FF FF A9 00 00 D0   Length = 0 BitCount = 0 ID = 529
   0.619931 1  29a             Rx   d 8 00 00 00 00 00 00 03 FC   Length = 0 BitCount = 0 ID = 666
   0.619931 1  214             Rx   d 2 00 00   Length = 0 BitCount = 0 ID = 532
   0.619931 1  2b7             Rx   d 5 00 E0 FF FE 00   Length = 0 BitCount = 0 ID = 695
   0.619931 1  1b0             Rx   d 4 FF 00 FF C0   Length = 0 BitCount = 0 ID = 432
   0.619931 1  657             Rx   d 2 C0 CC   Length = 0 BitCount = 0 ID = 1623
   0.619931 1  12e             Rx   d 8 CB 80 00 7F F0 FF FF 00   Length = 0 BitCount = 0 ID = 302
   0.619931 1  90              Rx   d 5 FF 00 07 06 00   Length = 0 BitCount = 0 ID = 144
   0.619931 1  c6              Rx   d 8 80 3D 80 00 7F E3 AE B2   Length = 0 BitCount = 0 ID = 198
   0.619931 1  242             Rx   d 8 00 00 FF EF FE 00 0D 00   Length = 0 BitCount = 0 ID = 578
   0.629593 1  29c             Rx   d 8 00 00 00 00 FF FF 00 00   Length = 0 BitCount = 0 ID = 668
   0.629593 1  354             Rx   d 8 00 00 00 00 00 00 00 00   Length = 0 BitCount = 0 ID = 852
   0.634618 1  4ac             Rx   d 5 83 75 2A 00 80   Length = 0 BitCount = 0 ID = 1196
   0.634618 1  45c             Rx   d 6 00 00 00 00 FF E0   Length = 0 BitCount = 0 ID = 1116
   0.634618 1  12e             Rx   d 8 CB 80 00 7F F0 FF FF 00   Length = 0 BitCount = 0 ID = 302
   0.634618 1  90              Rx   d 5 FF 00 08 A5 00   Length = 0 BitCount = 0 ID = 144
   0.634618 1  c6              Rx   d 8 80 3D 80 00 7F E3 B0 B0   Length = 0 BitCount = 0 ID = 198
   0.634618 1  211             Rx   d 8 82 00 FF FF A9 00 00 D0   Length = 0 BitCount = 0 ID = 529
   0.634618 1  29a             Rx   d 8 00 00 00 00 00 00 04 FB   Length = 0 BitCount = 0 ID = 666
   0.634618 1  214             Rx   d 2 00 00   Length = 0 BitCount = 0 ID = 532
   0.634618 1  2b7             Rx   d 5 00 E0 FF FE 00   Length = 0 BitCount = 0 ID = 695
   0.634618 1  218             Rx   d 1 98   Length = 0 BitCount = 0 ID = 536
   0.634618 1  4fa             Rx   d 2 08 00   Length = 0 BitCount = 0 ID = 1274
   0.634618 1  671             Rx   d 2 02 00   Length = 0 BitCount = 0 ID = 1649
   0.634618 1  1b0             Rx   d 4 FF 00 FF C0   Length = 0 BitCount = 0 ID = 432
   0.654829 1  12e             Rx   d 8 CB 80 00 7F F0 FF FF 00   Length = 0 BitCount = 0 ID = 302
   0.654829 1  90              Rx   d 5 FF 00 09 E9 00   Length = 0 BitCount = 0 ID = 144
   0.654829 1  c6              Rx   d 8 80 3D 80 00 7F E3 B2 AE   Length = 0 BitCount = 0 ID = 198
   0.654829 1  242             Rx   d 8 00 00 FF EF FE 00 0D 00   Length = 0 BitCount = 0 ID = 578
   0.654829 1  29c             Rx   d 8 00 00 00 00 FF FF 00 00   Length = 0 BitCount = 0 ID = 668
   0.654829 1  352             Rx   d 4 5C 00 00 FF   Length = 0 BitCount = 0 ID = 850
   0.654829 1  12e             Rx   d 8 CB 80 00 7F F0 FF FF 00   Length = 0 BitCount = 0 ID = 302
   0.654829 1  90              Rx   d 5 FF 00 0A 3D 00   Length = 0 BitCount = 0 ID = 144
   0.654829 1  c6              Rx   d 8 80 3D 80 00 7F E3 B4 AC   Length = 0 BitCount = 0 ID = 198
   0.654829 1  211             Rx   d 8 82 00 FF FF A9 00 00 D0   Length = 0 BitCount = 0 ID = 529
   0.654829 1  29a             Rx   d 8 00 00 00 00 00 00 05 FA   Length = 0 BitCount = 0 ID = 666
   0.654829 1  214             Rx   d 2 00 00   Length = 0 BitCount = 0 ID = 532
   0.654829 1  2b7             Rx   d 5 00 E0 FF FE 00   Length = 0 BitCount = 0 ID = 695
   0.654829 1  5d7             Rx   d 7 00 00 08 12 52 00 C0   Length = 0 BitCount = 0 ID = 1495
   0.654829 1  1b0             Rx   d 4 FF 00 FF C0   Length = 0 BitCount = 0 ID = 432
   0.674693 1  392             Rx   d 5 FF 00 FF F0 00   Length = 0 BitCount = 0 ID = 914
   0.674693 1  12e             Rx   d 8 CA 80 00 7F F0 FF FF 00   Length = 0 BitCount = 0 ID = 302
   0.674693 1  90              Rx   d 5 FF 00 0B 71 00   Length = 0 BitCount = 0 ID = 144
   0.674693 1  c6              Rx   d 8 80 3D 80 00 7F E3 B6 AA   Length = 0 BitCount = 0 ID = 198
   0.674693 1  242             Rx   d 8 00 00 FF EF FE 00 0D 00   Length = 0 BitCount = 0 ID = 578
   0.674693 1  29c             Rx   d 8 00 00 00 00 FF FF 00 00   Length = 0 BitCount = 0 ID = 668
   0.674693 1  354             Rx   d 8 00 00 00 00 00 00 00 00   Length = 0 BitCount = 0 ID = 852
   0.674693 1  699             Rx   d 8 00 00 02 00 BF 00 00 00   Length = 0 BitCount = 0 ID = 1689
   0.674693 1  12e             Rx   d 8 CA 80 00 7F F0 FF FF 00   Length = 0 BitCount = 0 ID = 302
   0.674693 1  90              Rx   d 5 FF 00 0C 88 00   Length = 0 BitCount = 0 ID = 144
   0.674693 1  c6              Rx   d 8 80 3D 7F E7 7F E3 B8 C2   Length = 0 BitCount = 0 ID = 198
   0.674693 1  211             Rx   d 8 82 00 FF FF A9 00 00 D0   Length = 0 BitCount = 0 ID = 529
   0.674693 1  29a             Rx   d 8 00 00 00 00 00 00 06 F9   Length = 0 BitCount = 0 ID = 666
   0.674693 1  214             Rx   d 2 00 00   Length = 0 BitCount = 0 ID = 532
   0.674693 1  2b7             Rx   d 5 00 E0 FF FE 00   Length = 0 BitCount = 0 ID = 695
   0.674693 1  666             Rx   d 4 34 80 00 08   Length = 0 BitCount = 0 ID = 1638
   0.674693 1  350             Rx   d 8 C3 2F 3A F0 18 10 A4 89   Length = 0 BitCount = 0 ID = 848
   0.674693 1  1b0             Rx   d 4 FF 00 FF C0   Length = 0 BitCount = 0 ID = 432
   0.674693 1  4de             Rx   d 3 C0 00 00   Length = 0 BitCount = 0 ID = 1246
   0.674693 1  55d             Rx   d 8 00 FC 50 C0 90 80 00 00   Length = 0 BitCount = 0 ID = 1373
   0.701168 1  12e             Rx   d 8 CA 7F FF 7F F0 FF FF 00   Length = 0 BitCount = 0 ID = 302
   0.701168 1  90              Rx   d 5 FF 00 0D C4 00   Length = 0 BitCount = 0 ID = 144
   0.701168 1  c6              Rx   d 8 80 3D 80 10 7F E3 BA 96   Length = 0 BitCount = 0 ID = 198
   0.701168 1  242             Rx   d 8 00 00 FF EF FE 00 0D 00   Length = 0 BitCount = 0 ID = 578
   0.701168 1  29c             Rx   d 8 00 00 00 00 FF FF 00 00   Length = 0 BitCount = 0 ID = 668
   0.701168 1  352             Rx   d 4 5C 00 00 FF   Length = 0 BitCount = 0 ID = 850
   0.701168 1  4f8             Rx   d 8 54 C0 00 00 00 00 00 00   Length = 0 BitCount = 0 ID = 1272
   0.701168 1  12e             Rx   d 8 CA 7F FF 7F F0 FF FF 00   Length = 0 BitCount = 0 ID = 302
   0.701168 1  90              Rx   d 5 FF 00 0E 10 00   Length = 0 BitCount = 0 ID = 144
   0.701168 1  c6              Rx   d 8 80 3D 80 08 7F E3 BC 9C   Length = 0 BitCount = 0 ID = 198
   0.701168 1  211             Rx   d 8 82 00 FF FF A9 00 00 D0   Length = 0 BitCount = 0 ID = 529
   0.701168 1  29a             Rx   d 8 00 00 00 00 00 00 07 F8   Length = 0 BitCount = 0 ID = 666
   0.701168 1  214             Rx   d 2 00 00   Length = 0 BitCount = 0 ID = 532
   0.701168 1  2b7             Rx   d 5 00 E0 FF FE 00   Length = 0 BitCount = 0 ID = 695
   0.701168 1  1b0             Rx   d 4 FF 00 FF C0   Length = 0 BitCount = 0 ID = 432
   0.701168 1  5de             Rx   d 8 00 00 00 00 00 00 00 02   Length = 0 BitCount = 0 ID = 1502
   0.701168 1  12e             Rx   d 8 CA 80 00 7F F0 FF FF 00   Length = 0 BitCount = 0 ID = 302
   0.701168 1  90              Rx   d 5 FF 00 0F 5C 00   Length = 0 BitCount = 0 ID = 144
   0.701168 1  c6              Rx   d 8 80 3D 80 00 7F E3 BE A2   Length = 0 BitCount = 0 ID = 198
   0.701168 1  242             Rx   d 8 00 00 FF EF FE 00 0D 00   Length = 0 BitCount = 0 ID = 578
   0.701168 1  29c             Rx   d 8 00 00 00 00 FF FF 00 00   Length = 0 BitCount = 0 ID = 668
   0.701168 1  354             Rx   d 8 00 00 00 00 00 00 00 00   Length = 0 BitCount = 0 ID = 852
   0.714781 1  5df             Rx   d 3 00 95 00   Length = 0 BitCount = 0 ID = 1503
   0.714781 1  3b7             Rx   d 6 00 00 7F C0 00 C0   Length = 0 BitCount = 0 ID = 951
   0.714781 1  392             Rx   d 5 00 00 0F 00 00   Length = 0 BitCount = 0 ID = 914
   0.714781 1  668             Rx   d 2 80 00   Length = 0 BitCount = 0 ID = 1640
   0.714781 1  90              Rx   d 5 FF 00 00 FF 00   Length = 0 BitCount = 0 ID = 144
   0.714781 1  c6              Rx   d 8 80 3D 80 00 7F E3 A0 C0   Length = 0 BitCount = 0 ID = 198
   0.714781 1  12e             Rx   d 8 CA 80 00 7F F0 FF FF 00   Length = 0 BitCount = 0 ID = 302
   0.714781 1  211             Rx   d 8 82 00 FF FF A9 00 00 D0   Length = 0 BitCount = 0 ID = 529
   0.714781 1  29a             Rx   d 8 00 00 00 00 00 00 08 F7   Length = 0 BitCount = 0 ID = 666
   0.714781 1  214             Rx   d 2 00 00   Length = 0 BitCount = 0 ID = 532
   0.714781 1  2b7             Rx   d 5 00 E0 FF FE 00   Length = 0 BitCount = 0 ID = 695
   0.714781 1  1b0             Rx   d 4 FF 00 FF C0   Length = 0 BitCount = 0 ID = 432
   0.714781 1  657             Rx   d 2 C0 CC   Length = 0 BitCount = 0 ID = 1623
   0.734684 1  12e             Rx   d 8 CB 80 00 7F F0 FF FF 00   Length = 0 BitCount = 0 ID = 302
   0.734684 1  90              Rx   d 5 FF 00 01 B3 00   Length = 0 BitCount = 0 ID = 144
   0.734684 1  c6              Rx   d 8 80 3D 7F F8 7F E3 A2 C7   Length = 0 BitCount = 0 ID = 198
   0.734684 1  242             Rx   d 8 00 00 FF EF FE 00 0D 00   Length = 0 BitCount = 0 ID = 578
   0.734684 1  29c             Rx   d 8 00 00 00 00 FF FF 00 00   Length = 0 BitCount = 0 ID = 668
   0.734684 1  352             Rx   d 4 5C 00 00 FF   Length = 0 BitCount = 0 ID = 850
   0.734684 1  4ac             Rx   d 5 83 75 2A 00 80   Length = 0 BitCount = 0 ID = 1196
   0.734684 1  45c             Rx   d 6 00 00 00 00 FF E0   Length = 0 BitCount = 0 ID = 1116
   0.734684 1  12e             Rx   d 8 CB 80 00 7F F0 FF FF 00   Length = 0 BitCount = 0 ID = 302
   0.734684 1  90              Rx   d 5 FF 00 02 67 00   Length = 0 BitCount = 0 ID = 144
   0.734684 1  c6              Rx   d 8 80 3D 80 08 7F E3 A4 B4   Length = 0 BitCount = 0 ID = 198
   0.734684 1  211             Rx   d 8 82 00 FF FF A9 00 00 D0   Length = 0 BitCount = 0 ID = 529
   0.734684 1  29a             Rx   d 8 00 00 00 00 00 00 09 F6   Length = 0 BitCount = 0 ID = 666
   0.734684 1  214             Rx   d 2 00 00   Length = 0 BitCount = 0 ID = 532
   0.734684 1  2b7             Rx   d 5 00 E0 FF FE 00   Length = 0 BitCount = 0 ID = 695
   0.734684 1  218             Rx   d 1 98   Length = 0 BitCount = 0 ID = 536
   0.734684 1  4fa             Rx   d 2 08 00   Length = 0 BitCount = 0 ID = 1274
   0.734684 1  671             Rx   d 2 02 00   Length = 0 BitCount = 0 ID = 1649
   0.734684 1  1b0             Rx   d 4 FF 00 FF C0   Length = 0 BitCount = 0 ID = 432
   0.754744 1  12e             Rx   d 8 CB 80 01 7F F0 FF FF 00   Length = 0 BitCount = 0 ID = 302
   0.754744 1  90              Rx   d 5 FF 00 03 2B 00   Length = 0 BitCount = 0 ID = 144
   0.754744 1  c6              Rx   d 8 80 3D 7F F8 7F E3 A6 C3   Length = 0 BitCount = 0 ID = 198
   0.754744 1  242             Rx   d 8 00 00 FF EF FE 00 0D 00   Length = 0 BitCount = 0 ID = 578
   0.754744 1  29c             Rx   d 8 00 00 00 00 FF FF 00 00   Length = 0 BitCount = 0 ID = 668
   0.754744 1  354             Rx   d 8 00 00 00 00 00 00 00 00   Length = 0 BitCount = 0 ID = 852
   0.754744 1  12e             Rx   d 8 CB 80 01 7F F0 FF FF 00   Length = 0 BitCount = 0 ID = 302
   0.754744 1  90              Rx   d 5 FF 00 04 D2 00   Length = 0 BitCount = 0 ID = 144
   0.754744 1  c6              Rx   d 8 80 3D 80 08 7F E3 A8 B0   Length = 0 BitCount = 0 ID = 198
   0.754744 1  211             Rx   d 8 82 00 FF FF A9 00 00 D0   Length = 0 BitCount = 0 ID = 529
   0.754744 1  29a             Rx   d 8 00 00 00 00 00 00 0A F5   Length = 0 BitCount = 0 ID = 666
   0.754744 1  214             Rx   d 2 00 00   Length = 0 BitCount = 0 ID = 532
   0.754744 1  2b7             Rx   d 5 00 E0 FF FE 00   Length = 0 BitCount = 0 ID = 695
   0.754744 1  5d7             Rx   d 7 00 00 08 12 52 00 C0   Length = 0 BitCount = 0 ID = 1495
   0.754744 1  1b0             Rx   d 4 FF 00 FF C0   Length = 0 BitCount = 0 ID = 432
   0.774661 1  392             Rx   d 5 00 00 00 00 00   Length = 0 BitCount = 0 ID = 914
   0.774661 1  12e             Rx   d 8 CB 80 02 7F F0 FF FF 00   Length = 0 BitCount = 0 ID = 302
   0.774661 1  90              Rx   d 5 FF 00 05 9E 00   Length = 0 BitCount = 0 ID = 144
   0.774661 1  c6              Rx   d 8 80 3D 80 00 7F E3 AA B6   Length = 0 BitCount = 0 ID = 198
   0.774661 1  242             Rx   d 8 00 00 FF EF FE 00 0D 00   Length = 0 BitCount = 0 ID = 578
   0.774661 1  29c             Rx   d 8 00 00 00 00 FF FF 00 00   Length = 0 BitCount = 0 ID = 668
   0.774661 1  352             Rx   d 4 5C 00 00 FF   Length = 0 BitCount = 0 ID = 850
   0.774661 1  12e             Rx   d 8 CB 80 02 7F F0 FF FF 00   Length = 0 BitCount = 0 ID = 302
   0.774661 1  90              Rx   d 5 FF 00 06 4A 00   Length = 0 BitCount = 0 ID = 144
   0.774661 1  c6              Rx   d 8 80 3D 7F F8 7F E3 AC BD   Length = 0 BitCount = 0 ID = 198
   0.774661 1  211             Rx   d 8 82 00 FF FF A9 00 00 D0   Length = 0 BitCount = 0 ID = 529
   0.774661 1  29a             Rx   d 8 00 00 00 00 00 00 0B F4   Length = 0 BitCount = 0 ID = 666
   0.774661 1  214             Rx   d 2 00 00   Length = 0 BitCount = 0 ID = 532
   0.774661 1  2b7             Rx   d 5 00 E0 FF FE 00   Length = 0 BitCount = 0 ID = 695
   0.774661 1  666             Rx   d 4 34 80 00 08   Length = 0 BitCount = 0 ID = 1638
   0.774661 1  350             Rx   d 8 C3 2F 3A F0 18 10 A4 89   Length = 0 BitCount = 0 ID = 848
   0.774661 1  1b0             Rx   d 4 FF 00 FF C0   Length = 0 BitCount = 0 ID = 432
   0.774661 1  4de             Rx   d 3 C0 00 00   Length = 0 BitCount = 0 ID = 1246
   0.774661 1  55d             Rx   d 8 00 FC 50 C0 90 80 00 00   Length = 0 BitCount = 0 ID = 1373
   0.794301 1  12e             Rx   d 8 CA 80 00 7F F0 FF FF 00   Length = 0 BitCount = 0 ID = 302
   0.794301 1  90              Rx   d 5 FF 00 07 06 00   Length = 0 BitCount = 0 ID = 144
   0.794301 1  c6              Rx   d 8 80 3D 80 08 7F E3 AE AA   Length = 0 BitCount = 0 ID = 198
   0.794301 1  242             Rx   d 8 00 00 FF EF FE 00 0D 00   Length = 0 BitCount = 0 ID = 578
   0.794301 1  29c             Rx   d 8 00 00 00 00 FF FF 00 00   Length = 0 BitCount = 0 ID = 668
   0.794301 1  354             Rx   d 8 00 00 00 00 00 00 00 00   Length = 0 BitCount = 0 ID = 852
   0.794301 1  4f8             Rx   d 8 54 C0 00 00 00 00 00 00   Length = 0 BitCount = 0 ID = 1272
   0.794301 1  12e             Rx   d 8 CA 80 00 7F F0 FF FF 00   Length = 0 BitCount = 0 ID = 302
   0.794301 1  90              Rx   d 5 FF 00 08 A5 00   Length = 0 BitCount = 0 ID = 144
   0.794301 1  c6              Rx   d 8 80 3D 7F F8 7F E3 B0 B9   Length = 0 BitCount = 0 ID = 198
   0.794301 1  211             Rx   d 8 82 00 FF FF A9 00 00 D0   Length = 0 BitCount = 0 ID = 529
   0.794301 1  29a             Rx   d 8 00 00 00 00 00 00 0C F3   Length = 0 BitCount = 0 ID = 666
   0.794301 1  214             Rx   d 2 00 00   Length = 0 BitCount = 0 ID = 532
   0.794301 1  2b7             Rx   d 5 00 E0 FF FE 00   Length = 0 BitCount = 0 ID = 695
   0.794301 1  1b0             Rx   d 4 FF 00 FF C0   Length = 0 BitCount = 0 ID = 432
   0.794301 1  5de             Rx   d 8 00 00 00 00 00 00 00 02   Length = 0 BitCount = 0 ID = 1502
   0.821008 1  12e             Rx   d 8 C9 80 00 7F F0 FF FF 00   Length = 0 BitCount = 0 ID = 302
   0.821008 1  90              Rx   d 5 FF 00 09 E9 00   Length = 0 BitCount = 0 ID = 144
   0.821008 1  c6              Rx   d 8 80 3D 80 08 7F E3 B2 A6   Length = 0 BitCount = 0 ID = 198
   0.821008 1  242             Rx   d 8 00 00 FF EF FE 00 0D 00   Length = 0 BitCount = 0 ID = 578
   0.821008 1  29c             Rx   d 8 00 00 00 00 FF FF 00 00   Length = 0 BitCount = 0 ID = 668
   0.821008 1  352             Rx   d 4 5C 00 00 FF   Length = 0 BitCount = 0 ID = 850
   0.821008 1  5df             Rx   d 3 00 95 00   Length = 0 BitCount = 0 ID = 1503
   0.821008 1  3b7             Rx   d 6 00 00 7F C0 00 C0   Length = 0 BitCount = 0 ID = 951
   0.821008 1  392             Rx   d 5 00 00 00 00 00   Length = 0 BitCount = 0 ID = 914
   0.821008 1  12e             Rx   d 8 C9 80 00 7F F0 FF FF 00   Length = 0 BitCount = 0 ID = 302
   0.821008 1  90              Rx   d 5 FF 00 0A 3D 00   Length = 0 BitCount = 0 ID = 144
   0.821008 1  c6              Rx   d 8 80 3D 80 00 7F E3 B4 AC   Length = 0 BitCount = 0 ID = 198
   0.821008 1  211             Rx   d 8 82 00 FF FF A9 00 00 D0   Length = 0 BitCount = 0 ID = 529
   0.821008 1  29a             Rx   d 8 00 00 00 00 00 00 0D F2   Length = 0 BitCount = 0 ID = 666
   0.821008 1  214             Rx   d 2 00 00   Length = 0 BitCount = 0 ID = 532
   0.821008 1  2b7             Rx   d 5 00 E0 FF FE 00   Length = 0 BitCount = 0 ID = 695
   0.821008 1  668             Rx   d 2 80 00   Length = 0 BitCount = 0 ID = 1640
   0.821008 1  1b0             Rx   d 4 FF 00 FF C0   Length = 0 BitCount = 0 ID = 432
   0.821008 1  657             Rx   d 2 C0 CC   Length = 0 BitCount = 0 ID = 1623
   0.824577 1  12e             Rx   d 8 CA 80 01 7F F0 FF FF 00   Length = 0 BitCount = 0 ID = 302
   0.824577 1  90              Rx   d 5 FF 00 0B 71 00   Length = 0 BitCount = 0 ID = 144
   0.824577 1  c6              Rx   d 8 80 3D 7F F8 7F E3 B6 B3   Length = 0 BitCount = 0 ID = 198
   0.824577 1  242             Rx   d 8 00 00 FF EF FE 00 0D 00   Length = 0 BitCount = 0 ID = 578
   0.824577 1  29c             Rx   d 8 00 00 00 00 FF FF 00 00   Length = 0 BitCount = 0 ID = 668
   0.824577 1  354             Rx   d 8 00 00 00 00 00 00 00 00   Length = 0 BitCount = 0 ID = 852
   0.824577 1  4ac             Rx   d 5 83 75 2A 00 80   Length = 0 BitCount = 0 ID = 1196
   0.824577 1  45c             Rx   d 6 00 00 00 00 FF E0   Length = 0 BitCount = 0 ID = 1116
   0.844946 1  12e             Rx   d 8 CA 80 01 7F F0 FF FF 00   Length = 0 BitCount = 0 ID = 302
   0.844946 1  90              Rx   d 5 FF 00 0C 88 00   Length = 0 BitCount = 0 ID = 144
   0.844946 1  c6              Rx   d 8 80 3D 80 00 7F E3 B8 A8   Length = 0 BitCount = 0 ID = 198
   0.844946 1  211             Rx   d 8 82 00 FF FF A9 00 00 D0   Length = 0 BitCount = 0 ID = 529
   0.844946 1  29a             Rx   d 8 00 00 00 00 00 00 0E F1   Length = 0 BitCount = 0 ID = 666
   0.844946 1  214             Rx   d 2 00 00   Length = 0 BitCount = 0 ID = 532
   0.844946 1  2b7             Rx   d 5 00 E0 FF FE 00   Length = 0 BitCount = 0 ID = 695
   0.844946 1  218             Rx   d 1 98   Length = 0 BitCount = 0 ID = 536
   0.844946 1  4fa             Rx   d 2 08 00   Length = 0 BitCount = 0 ID = 1274
   0.844946 1  671             Rx   d 2 02 00   Length = 0 BitCount = 0 ID = 1649
   0.844946 1  1b0             Rx   d 4 FF 00 FF C0   Length = 0 BitCount = 0 ID = 432
   0.844946 1  12e             Rx   d 8 CA 80 00 7F F0 FF FF 00   Length = 0 BitCount = 0 ID = 302
   0.844946 1  90              Rx   d 5 FF 00 0D C4 00   Length = 0 BitCount = 0 ID = 144
   0.844946 1  c6              Rx   d 8 80 3D 80 08 7F E3 BA 9E   Length = 0 BitCount = 0 ID = 198
   0.844946 1  242             Rx   d 8 00 00 FF EF FE 00 0D 00   Length = 0 BitCount = 0 ID = 578
   0.844946 1  29c             Rx   d 8 00 00 00 00 FF FF 00 00   Length = 0 BitCount = 0 ID = 668
   0.844946 1  352             Rx   d 4 5C 00 00 FF   Length = 0 BitCount = 0 ID = 850
   0.855001 1  12e             Rx   d 8 CA 80 00 7F F0 FF FF 00   Length = 0 BitCount = 0 ID = 302
   0.855001 1  90              Rx   d 5 FF 00 0E 10 00   Length = 0 BitCount = 0 ID = 144
   0.855001 1  c6              Rx   d 8 80 3D 7F F0 7F E3 BC B5   Length = 0 BitCount = 0 ID = 198
   0.855001 1  211             Rx   d 8 82 00 FF FF A9 00 00 D0   Length = 0 BitCount = 0 ID = 529
   0.860007 1  29a             Rx   d 8 00 00 00 00 00 00 0F F0   Length = 0 BitCount = 0 ID = 666
   0.860007 1  214             Rx   d 2 00 00   Length = 0 BitCount = 0 ID = 532
   0.860007 1  2b7             Rx   d 5 00 E0 FF FE 00   Length = 0 BitCount = 0 ID = 695
   0.860007 1  5d7             Rx   d 7 00 00 08 12 52 00 C0   Length = 0 BitCount = 0 ID = 1495
   0.860007 1  1b0             Rx   d 4 FF 00 FF C0   Length = 0 BitCount = 0 ID = 432
   0.860007 1  392             Rx   d 5 00 00 00 00 00   Length = 0 BitCount = 0 ID = 914
   0.860007 1  12e             Rx   d 8 CA 80 00 7F F0 FF FF 00   Length = 0 BitCount = 0 ID = 302
   0.860007 1  90              Rx   d 5 FF 00 0F 5C 00   Length = 0 BitCount = 0 ID = 144
   0.860007 1  c6              Rx   d 8 80 3D 80 10 7F E3 BE 92   Length = 0 BitCount = 0 ID = 198
   0.860007 1  242             Rx   d 8 00 00 FF EF FE 00 0D 00   Length = 0 BitCount = 0 ID = 578
   0.860007 1  29c             Rx   d 8 00 00 00 00 FF FF 00 00   Length = 0 BitCount = 0 ID = 668
   0.860007 1  354             Rx   d 8 00 00 00 00 00 00 00 00   Length = 0 BitCount = 0 ID = 852
   0.884841 1  12e             Rx   d 8 CA 80 00 7F F0 FF FF 00   Length = 0 BitCount = 0 ID = 302
   0.884841 1  90              Rx   d 5 FF 00 00 FF 00   Length = 0 BitCount = 0 ID = 144
   0.884841 1  c6              Rx   d 8 80 3D 80 00 7F E3 A0 C0   Length = 0 BitCount = 0 ID = 198
   0.884841 1  211             Rx   d 8 82 00 FF FF A9 00 00 D0   Length = 0 BitCount = 0 ID = 529
   0.884841 1  29a             Rx   d 8 00 00 00 00 00 00 00 FF   Length = 0 BitCount = 0 ID = 666
   0.884841 1  214             Rx   d 2 00 00   Length = 0 BitCount = 0 ID = 532
   0.884841 1  2b7             Rx   d 5 00 E0 FF FE 00   Length = 0 BitCount = 0 ID = 695
   0.884841 1  666             Rx   d 4 34 80 00 08   Length = 0 BitCount = 0 ID = 1638
   0.884841 1  350             Rx   d 8 C3 2F 3A F0 18 10 A4 89   Length = 0 BitCount = 0 ID = 848
   0.884841 1  1b0             Rx   d 4 FF 00 FF C0   Length = 0 BitCount = 0 ID = 432
   0.884841 1  4de             Rx   d 3 C0 00 00   Length = 0 BitCount = 0 ID = 1246
   0.884841 1  55d             Rx   d 8 00 FC 50 C0 90 80 00 00   Length = 0 BitCount = 0 ID = 1373
   0.884841 1  12e             Rx   d 8 CA 80 00 7F F0 FF FF 00   Length = 0 BitCount = 0 ID = 302
   0.884841 1  90              Rx   d 5 FF 00 01 B3 00   Length = 0 BitCount = 0 ID = 144
   0.884841 1  c6              Rx   d 8 80 3D 80 00 7F E3 A2 BE   Length = 0 BitCount = 0 ID = 198
   0.884841 1  242             Rx   d 8 00 00 FF EF FE 00 0D 00   Length = 0 BitCount = 0 ID = 578
   0.884841 1  29c             Rx   d 8 00 00 00 00 FF FF 00 00   Length = 0 BitCount = 0 ID = 668
   0.884841 1  352             Rx   d 4 5C 00 00 FF   Length = 0 BitCount = 0 ID = 850
   0.899828 1  4f8             Rx   d 8 54 C0 00 00 00 00 00 00   Length = 0 BitCount = 0 ID = 1272
   0.899828 1  12e             Rx   d 8 CA 80 00 7F F0 FF FF 00   Length = 0 BitCount = 0 ID = 302
   0.899828 1  90              Rx   d 5 FF 00 02 67 00   Length = 0 BitCount = 0 ID = 144
   0.899828 1  c6              Rx   d 8 80 3D 7F F8 7F E3 A4 C5   Length = 0 BitCount = 0 ID = 198
   0.899828 1  211             Rx   d 8 82 00 FF FF A9 00 00 D0   Length = 0 BitCount = 0 ID = 529
   0.899828 1  29a             Rx   d 8 00 00 00 00 00 00 01 FE   Length = 0 BitCount = 0 ID = 666
   0.899828 1  2b7             Rx   d 5 00 E0 FF FE 00   Length = 0 BitCount = 0 ID = 695
   0.899828 1  214             Rx   d 2 00 00   Length = 0 BitCount = 0 ID = 532
   0.899828 1  1b0             Rx   d 4 FF 00 FF C0   Length = 0 BitCount = 0 ID = 432
   0.899828 1  5de             Rx   d 8 00 00 00 00 00 00 00 02   Length = 0 BitCount = 0 ID = 1502
   0.899828 1  12e             Rx   d 8 CA 80 00 7F F0 FF FF 00   Length = 0 BitCount = 0 ID = 302
   0.899828 1  90              Rx   d 5 FF 00 03 2B 00   Length = 0 BitCount = 0 ID = 144
   0.899828 1  c6              Rx   d 8 80 3D 80 08 7F E3 A6 B2   Length = 0 BitCount = 0 ID = 198
   0.899828 1  242             Rx   d 8 00 00 FF EF FE 00 0D 00   Length = 0 BitCount = 0 ID = 578
   0.899828 1  29c             Rx   d 8 00 00 00 00 FF FF 00 00   Length = 0 BitCount = 0 ID = 668
   0.899828 1  354             Rx   d 8 00 00 00 00 00 00 00 00   Length = 0 BitCount = 0 ID = 852
   0.914897 1  5df             Rx   d 3 00 95 00   Length = 0 BitCount = 0 ID = 1503
   0.914897 1  3b7             Rx   d 6 00 00 7F C0 00 C0   Length = 0 BitCount = 0 ID = 951
   0.914897 1  392             Rx   d 5 00 00 00 00 00   Length = 0 BitCount = 0 ID = 914
   0.914897 1  90              Rx   d 5 FF 00 04 D2 00   Length = 0 BitCount = 0 ID = 144
   0.914897 1  c6              Rx   d 8 80 3D 7F F8 7F E3 A8 C1   Length = 0 BitCount = 0 ID = 198
   0.914897 1  12e             Rx   d 8 CA 80 00 7F F0 FF FF 00   Length = 0 BitCount = 0 ID = 302
   0.914897 1  211             Rx   d 8 82 00 FF FF A9 00 00 D0   Length = 0 BitCount = 0 ID = 529
   0.914897 1  29a             Rx   d 8 00 00 00 00 00 00 02 FD   Length = 0 BitCount = 0 ID = 666
   0.914897 1  2b7             Rx   d 5 00 E0 FF FE 00   Length = 0 BitCount = 0 ID = 695
   0.914897 1  214             Rx   d 2 00 00   Length = 0 BitCount = 0 ID = 532
   0.914897 1  668             Rx   d 2 80 00   Length = 0 BitCount = 0 ID = 1640
   0.914897 1  1b0             Rx   d 4 FF 00 FF C0   Length = 0 BitCount = 0 ID = 432
   0.914897 1  657             Rx   d 2 C0 CC   Length = 0 BitCount = 0 ID = 1623
   0.929967 1  12e             Rx   d 8 CA 80 01 7F F0 FF FF 00   Length = 0 BitCount = 0 ID = 302
   0.929967 1  90              Rx   d 5 FF 00 05 9E 00   Length = 0 BitCount = 0 ID = 144
   0.929967 1  c6              Rx   d 8 80 3D 80 08 7F E3 AA AE   Length = 0 BitCount = 0 ID = 198
   0.929967 1  242             Rx   d 8 00 00 FF EF FE 00 0D 00   Length = 0 BitCount = 0 ID = 578
   0.929967 1  29c             Rx   d 8 00 00 00 00 FF FF 00 00   Length = 0 BitCount = 0 ID = 668
   0.929967 1  352             Rx   d 4 5C 00 00 FF   Length = 0 BitCount = 0 ID = 850
   0.929967 1  4ac             Rx   d 5 83 75 2A 00 80   Length = 0 BitCount = 0 ID = 1196
   0.929967 1  45c             Rx   d 6 00 00 00 00 FF E0   Length = 0 BitCount = 0 ID = 1116
   0.934764 1  12e             Rx   d 8 CA 80 01 7F F0 FF FF 00   Length = 0 BitCount = 0 ID = 302
   0.934764 1  90              Rx   d 5 FF 00 06 4A 00   Length = 0 BitCount = 0 ID = 144
   0.934764 1  c6              Rx   d 8 80 3D 80 00 7F E3 AC B4   Length = 0 BitCount = 0 ID = 198
   0.934764 1  211             Rx   d 8 82 00 FF FF A9 00 00 D0   Length = 0 BitCount = 0 ID = 529
   0.934764 1  29a             Rx   d 8 00 00 00 00 00 00 03 FC   Length = 0 BitCount = 0 ID = 666
   0.934764 1  2b7             Rx   d 5 00 E0 FF FE 00   Length = 0 BitCount = 0 ID = 695
   0.934764 1  214             Rx   d 2 00 00   Length = 0 BitCount = 0 ID = 532
   0.934764 1  218             Rx   d 1 98   Length = 0 BitCount = 0 ID = 536
   0.934764 1  4fa             Rx   d 2 08 00   Length = 0 BitCount = 0 ID = 1274
   0.934764 1  671             Rx   d 2 02 00   Length = 0 BitCount = 0 ID = 1649
   0.934764 1  1b0             Rx   d 4 FF 00 FF C0   Length = 0 BitCount = 0 ID = 432
   0.951897 1  12e             Rx   d 8 CA 80 01 7F F0 FF FF 00   Length = 0 BitCount = 0 ID = 302
   0.951897 1  90              Rx   d 5 FF 00 07 06 00   Length = 0 BitCount = 0 ID = 144
   0.951897 1  c6              Rx   d 8 80 3D 80 00 7F E3 AE B2   Length = 0 BitCount = 0 ID = 198
   0.951897 1  242             Rx   d 8 00 00 FF EF FE 00 0D 00   Length = 0 BitCount = 0 ID = 578
   0.951897 1  29c             Rx   d 8 00 00 00 00 FF FF 00 00   Length = 0 BitCount = 0 ID = 668
   0.951897 1  354             Rx   d 8 00 00 00 00 00 00 00 00   Length = 0 BitCount = 0 ID = 852
   0.951897 1  12e             Rx   d 8 CA 80 01 7F F0 FF FF 00   Length = 0 BitCount = 0 ID = 302
   0.951897 1  90              Rx   d 5 FF 00 08 A5 00   Length = 0 BitCount = 0 ID = 144
   0.951897 1  c6              Rx   d 8 80 3D 7F F8 7F E3 B0 B9   Length = 0 BitCount = 0 ID = 198
   0.951897 1  211             Rx   d 8 82 00 FF FF A9 00 00 D0   Length = 0 BitCount = 0 ID = 529
   0.951897 1  29a             Rx   d 8 00 00 00 00 00 00 04 FB   Length = 0 BitCount = 0 ID = 666
   0.951897 1  2b7             Rx   d 5 00 E0 FF FE 00   Length = 0 BitCount = 0 ID = 695
   0.951897 1  214             Rx   d 2 00 00   Length = 0 BitCount = 0 ID = 532
   0.951897 1  5d7             Rx   d 7 00 00 08 12 52 00 C0   Length = 0 BitCount = 0 ID = 1495
   0.964468 1  1b0             Rx   d 4 FF 00 FF C0   Length = 0 BitCount = 0 ID = 432
   0.964468 1  392             Rx   d 5 00 00 00 00 00   Length = 0 BitCount = 0 ID = 914
   0.964468 1  12e             Rx   d 8 CA 80 00 7F F0 FF FF 00   Length = 0 BitCount = 0 ID = 302
   0.964468 1  90              Rx   d 5 FF 00 09 E9 00   Length = 0 BitCount = 0 ID = 144
   0.964468 1  c6              Rx   d 8 80 3D 80 08 7F E3 B2 A6   Length = 0 BitCount = 0 ID = 198
   0.964468 1  242             Rx   d 8 00 00 FF EF FE 00 0D 00   Length = 0 BitCount = 0 ID = 578
   0.964468 1  29c             Rx   d 8 00 00 00 00 FF FF 00 00   Length = 0 BitCount = 0 ID = 668
   0.964468 1  352             Rx   d 4 5C 00 00 FF   Length = 0 BitCount = 0 ID = 850
   0.975023 1  12e             Rx   d 8 CA 80 00 7F F0 FF FF 00   Length = 0 BitCount = 0 ID = 302
   0.975023 1  90              Rx   d 5 FF 00 0A 3D 00   Length = 0 BitCount = 0 ID = 144
   0.975023 1  c6              Rx   d 8 80 3D 7F F8 7F E3 B4 B5   Length = 0 BitCount = 0 ID = 198
   0.975023 1  211             Rx   d 8 82 00 FF FF A9 00 00 D0   Length = 0 BitCount = 0 ID = 529
   0.984607 1  29a             Rx   d 8 00 00 00 00 00 00 05 FA   Length = 0 BitCount = 0 ID = 666
   0.984607 1  214             Rx   d 2 00 00   Length = 0 BitCount = 0 ID = 532
   0.984607 1  2b7             Rx   d 5 00 E0 FF FE 00   Length = 0 BitCount = 0 ID = 695
   0.984607 1  666             Rx   d 4 34 80 00 08   Length = 0 BitCount = 0 ID = 1638
   0.984607 1  350             Rx   d 8 C3 2F 3A F0 18 10 A4 89   Length = 0 BitCount = 0 ID = 848
   0.984607 1  1b0             Rx   d 4 FF 00 FF C0   Length = 0 BitCount = 0 ID = 432
   0.984607 1  4de             Rx   d 3 C0 00 00   Length = 0 BitCount = 0 ID = 1246
   0.984607 1  55d             Rx   d 8 00 FC 50 C0 90 80 00 00   Length = 0 BitCount = 0 ID = 1373
   0.984607 1  12e             Rx   d 8 CB 80 00 7F F0 FF FF 00   Length = 0 BitCount = 0 ID = 302
   0.984607 1  90              Rx   d 5 FF 00 0B 71 00   Length = 0 BitCount = 0 ID = 144
   0.984607 1  c6              Rx   d 8 80 3D 80 08 7F E3 B6 A2   Length = 0 BitCount = 0 ID = 198
   0.984607 1  242             Rx   d 8 00 00 FF EF FE 00 0D 00   Length = 0 BitCount = 0 ID = 578
   0.984607 1  29c             Rx   d 8 00 00 00 00 FF FF 00 00   Length = 0 BitCount = 0 ID = 668
   0.984607 1  354             Rx   d 8 00 00 00 00 00 00 00 00   Length = 0 BitCount = 0 ID = 852
   1.014578 1  4f8             Rx   d 8 54 C0 00 00 00 00 00 00   Length = 0 BitCount = 0 ID = 1272
   1.014578 1  12e             Rx   d 8 CB 80 00 7F F0 FF FF 00   Length = 0 BitCount = 0 ID = 302
   1.014578 1  90              Rx   d 5 FF 00 0C 88 00   Length = 0 BitCount = 0 ID = 144
   1.014578 1  c6              Rx   d 8 80 3D 7F F0 7F E3 B8 B9   Length = 0 BitCount = 0 ID = 198
   1.014578 1  211             Rx   d 8 82 00 FF FF A9 00 00 D0   Length = 0 BitCount = 0 ID = 529
   1.014578 1  29a             Rx   d 8 00 00 00 00 00 00 06 F9   Length = 0 BitCount = 0 ID = 666
   1.014578 1  214             Rx   d 2 00 00   Length = 0 BitCount = 0 ID = 532
   1.014578 1  2b7             Rx   d 5 00 E0 FF FE 00   Length = 0 BitCount = 0 ID = 695
   1.014578 1  1b0             Rx   d 4 FF 00 FF C0   Length = 0 BitCount = 0 ID = 432
   1.014578 1  5de             Rx   d 8 00 00 00 00 00 00 00 02   Length = 0 BitCount = 0 ID = 1502
   1.014578 1  12e             Rx   d 8 CA 80 00 7F F0 FF FF 00   Length = 0 BitCount = 0 ID = 302
   1.014578 1  90              Rx   d 5 FF 00 0D C4 00   Length = 0 BitCount = 0 ID = 144
   1.014578 1  c6              Rx   d 8 80 3D 80 10 7F E3 BA 96   Length = 0 BitCount = 0 ID = 198
   1.014578 1  242             Rx   d 8 00 00 FF EF FE 00 0D 00   Length = 0 BitCount = 0 ID = 578
   1.014578 1  29c             Rx   d 8 00 00 00 00 FF FF 00 00   Length = 0 BitCount = 0 ID = 668
   1.014578 1  352             Rx   d 4 5C 00 00 FF   Length = 0 BitCount = 0 ID = 850
   1.014578 1  5df             Rx   d 3 00 95 00   Length = 0 BitCount = 0 ID = 1503
   1.019584 1  3b7             Rx   d 6 00 00 7F C0 00 C0   Length = 0 BitCount = 0 ID = 951
   1.019584 1  392             Rx   d 5 00 00 00 00 00   Length = 0 BitCount = 0 ID = 914
   1.019584 1  90              Rx   d 5 FF 00 0E 10 00   Length = 0 BitCount = 0 ID = 144
   1.019584 1  c6              Rx   d 8 80 3D 80 00 7F E3 BC A4   Length = 0 BitCount = 0 ID = 198
   1.019584 1  12e             Rx   d 8 CA 80 00 7F F0 FF FF 00   Length = 0 BitCount = 0 ID = 302
   1.019584 1  211             Rx   d 8 82 00 FF FF A9 00 00 D0   Length = 0 BitCount = 0 ID = 529
   1.019584 1  29a             Rx   d 8 00 00 00 00 00 00 07 F8   Length = 0 BitCount = 0 ID = 666
   1.019584 1  214             Rx   d 2 00 00   Length = 0 BitCount = 0 ID = 532
   1.019584 1  2b7             Rx   d 5 00 E0 FF FE 00   Length = 0 BitCount = 0 ID = 695
   1.019584 1  668             Rx   d 2 80 00   Length = 0 BitCount = 0 ID = 1640
   1.019584 1  1b0             Rx   d 4 FF 00 FF C0   Length = 0 BitCount = 0 ID = 432
   1.019584 1  657             Rx   d 2 C0 CC   Length = 0 BitCount = 0 ID = 1623
   1.019584 1  646             Rx   d 8 00 00 00 02 00 00 00 0C   Length = 0 BitCount = 0 ID = 1606
   1.034965 1  12e             Rx   d 8 CA 80 00 7F F0 FF FF 00   Length = 0 BitCount = 0 ID = 302
   1.034965 1  90              Rx   d 5 FF 00 0F 5C 00   Length = 0 BitCount = 0 ID = 144
   1.034965 1  c6              Rx   d 8 80 3D 80 00 7F E3 BE A2   Length = 0 BitCount = 0 ID = 198
   1.034965 1  242             Rx   d 8 00 00 FF EF FE 00 0D 00   Length = 0 BitCount = 0 ID = 578
   1.034965 1  29c             Rx   d 8 00 00 00 00 FF FF 00 00   Length = 0 BitCount = 0 ID = 668
   1.034965 1  354             Rx   d 8 00 00 00 00 00 00 00 00   Length = 0 BitCount = 0 ID = 852
   1.034965 1  4ac             Rx   d 5 83 75 2A 00 80   Length = 0 BitCount = 0 ID = 1196
   1.034965 1  45c             Rx   d 6 00 00 00 00 FF E0   Length = 0 BitCount = 0 ID = 1116
   1.034965 1  12e             Rx   d 8 CA 80 00 7F F0 FF FF 00   Length = 0 BitCount = 0 ID = 302
   1.034965 1  90              Rx   d 5 FF 00 00 FF 00   Length = 0 BitCount = 0 ID = 144
   1.034965 1  c6              Rx   d 8 80 3D 80 00 7F E3 A0 C0   Length = 0 BitCount = 0 ID = 198
   1.034965 1  211             Rx   d 8 82 00 FF FF A9 00 00 D0   Length = 0 BitCount = 0 ID = 529
   1.034965 1  29a             Rx   d 8 00 00 00 00 00 00 08 F7   Length = 0 BitCount = 0 ID = 666
   1.034965 1  214             Rx   d 2 00 00   Length = 0 BitCount = 0 ID = 532
   1.034965 1  2b7             Rx   d 5 00 E0 FF FE 00   Length = 0 BitCount = 0 ID = 695
   1.034965 1  218             Rx   d 1 98   Length = 0 BitCount = 0 ID = 536
   1.034965 1  4fa             Rx   d 2 08 00   Length = 0 BitCount = 0 ID = 1274
   1.034965 1  671             Rx   d 2 02 00   Length = 0 BitCount = 0 ID = 1649
   1.034965 1  1b0             Rx   d 4 FF 00 FF C0   Length = 0 BitCount = 0 ID = 432
   1.054165 1  12e             Rx   d 8 CA 80 00 7F F0 FF FF 00   Length = 0 BitCount = 0 ID = 302
   1.054165 1  90              Rx   d 5 FF 00 01 B3 00   Length = 0 BitCount = 0 ID = 144
   1.054165 1  c6              Rx   d 8 80 3D 7F F0 7F E3 A2 CF   Length = 0 BitCount = 0 ID = 198
   1.054165 1  242             Rx   d 8 00 00 FF EF FE 00 0D 00   Length = 0 BitCount = 0 ID = 578
   1.054165 1  29c             Rx   d 8 00 00 00 00 FF FF 00 00   Length = 0 BitCount = 0 ID = 668
   1.054165 1  352             Rx   d 4 5C 00 00 FF   Length = 0 BitCount = 0 ID = 850
   1.054165 1  12e             Rx   d 8 CA 80 00 7F F0 FF FF 00   Length = 0 BitCount = 0 ID = 302
   1.054165 1  90              Rx   d 5 FF 00 02 67 00   Length = 0 BitCount = 0 ID = 144
   1.054165 1  c6              Rx   d 8 80 3D 80 10 7F E3 A4 AC   Length = 0 BitCount = 0 ID = 198
   1.054165 1  211             Rx   d 8 82 00 FF FF A9 00 00 D0   Length = 0 BitCount = 0 ID = 529
   1.054165 1  29a             Rx   d 8 00 00 00 00 00 00 09 F6   Length = 0 BitCount = 0 ID = 666
   1.054165 1  214             Rx   d 2 00 00   Length = 0 BitCount = 0 ID = 532
   1.054165 1  2b7             Rx   d 5 00 E0 FF FE 00   Length = 0 BitCount = 0 ID = 695
   1.054165 1  5d7             Rx   d 7 00 00 08 12 52 00 C0   Length = 0 BitCount = 0 ID = 1495
   1.054165 1  1b0             Rx   d 4 FF 00 FF C0   Length = 0 BitCount = 0 ID = 432
   1.074618 1  392             Rx   d 5 00 00 00 00 00   Length = 0 BitCount = 0 ID = 914
   1.074618 1  90              Rx   d 5 FF 00 03 2B 00   Length = 0 BitCount = 0 ID = 144
   1.074618 1  c6              Rx   d 8 80 3D 80 00 7F E3 A6 BA   Length = 0 BitCount = 0 ID = 198
   1.074618 1  12e             Rx   d 8 CB 80 00 7F F0 FF FF 00   Length = 0 BitCount = 0 ID = 302
   1.074618 1  242             Rx   d 8 00 00 FF EF FE 00 0D 00   Length = 0 BitCount = 0 ID = 578
   1.074618 1  29c             Rx   d 8 00 00 00 00 FF FF 00 00   Length = 0 BitCount = 0 ID = 668
   1.074618 1  354             Rx   d 8 00 00 00 00 00 00 00 00   Length = 0 BitCount = 0 ID = 852
   1.074618 1  12e             Rx   d 8 CB 80 00 7F F0 FF FF 00   Length = 0 BitCount = 0 ID = 302
   1.074618 1  90              Rx   d 5 FF 00 04 D2 00   Length = 0 BitCount = 0 ID = 144
   1.074618 1  c6              Rx   d 8 80 3D 7F F8 7F E3 A8 C1   Length = 0 BitCount = 0 ID = 198
   1.074618 1  211             Rx   d 8 82 00 FF FF A9 00 00 D0   Length = 0 BitCount = 0 ID = 529
   1.074618 1  29a             Rx   d 8 00 00 00 00 00 00 0A F5   Length = 0 BitCount = 0 ID = 666
   1.074618 1  214             Rx   d 2 00 00   Length = 0 BitCount = 0 ID = 532
   1.074618 1  2b7             Rx   d 5 00 E0 FF FE 00   Length = 0 BitCount = 0 ID = 695
   1.074618 1  666             Rx   d 4 34 80 00 08   Length = 0 BitCount = 0 ID = 1638
   1.074618 1  350             Rx   d 8 C3 2F 3A F0 18 10 A4 89   Length = 0 BitCount = 0 ID = 848
   1.074618 1  1b0             Rx   d 4 FF 00 FF C0   Length = 0 BitCount = 0 ID = 432
   1.074618 1  4de             Rx   d 3 C0 00 00   Length = 0 BitCount = 0 ID = 1246
   1.074618 1  55d             Rx   d 8 00 FC 50 C0 90 80 00 00   Length = 0 BitCount = 0 ID = 1373
   1.105070 1  12e             Rx   d 8 CA 80 00 7F F0 FF FF 00   Length = 0 BitCount = 0 ID = 302
   1.105070 1  90              Rx   d 5 FF 00 05 9E 00   Length = 0 BitCount = 0 ID = 144
   1.105070 1  c6              Rx   d 8 80 3D 80 08 7F E3 AA AE   Length = 0 BitCount = 0 ID = 198
   1.105070 1  242             Rx   d 8 00 00 FF EF FE 00 0D 00   Length = 0 BitCount = 0 ID = 578
   1.105070 1  29c             Rx   d 8 00 00 00 00 FF FF 00 00   Length = 0 BitCount = 0 ID = 668
   1.105070 1  352             Rx   d 4 5C 00 00 FF   Length = 0 BitCount = 0 ID = 850
   1.105070 1  4f8             Rx   d 8 54 C0 00 00 00 00 00 00   Length = 0 BitCount = 0 ID = 1272
   1.105070 1  12e             Rx   d 8 CA 80 00 7F F0 FF FF 00   Length = 0 BitCount = 0 ID = 302
   1.105070 1  90              Rx   d 5 FF 00 06 4A 00   Length = 0 BitCount = 0 ID = 144
   1.105070 1  c6              Rx   d 8 80 3D 7F F0 7F E3 AC C5   Length = 0 BitCount = 0 ID = 198
   1.105070 1  211             Rx   d 8 82 00 FF FF A9 00 00 D0   Length = 0 BitCount = 0 ID = 529
   1.105070 1  29a             Rx   d 8 00 00 00 00 00 00 0B F4   Length = 0 BitCount = 0 ID = 666
   1.105070 1  214             Rx   d 2 00 00   Length = 0 BitCount = 0 ID = 532
   1.105070 1  2b7             Rx   d 5 00 E0 FF FE 00   Length = 0 BitCount = 0 ID = 695
   1.105070 1  1b0             Rx   d 4 FF 00 FF C0   Length = 0 BitCount = 0 ID = 432
   1.105070 1  5de             Rx   d 8 00 00 00 00 00 00 00 02   Length = 0 BitCount = 0 ID = 1502
   1.105070 1  12e             Rx   d 8 CA 80 00 7F F0 FF FF 00   Length = 0 BitCount = 0 ID = 302
   1.105070 1  90              Rx   d 5 FF 00 07 06 00   Length = 0 BitCount = 0 ID = 144
   1.105070 1  c6              Rx   d 8 80 3D 80 10 7F E3 AE A2   Length = 0 BitCount = 0 ID = 198
   1.105070 1  242             Rx   d 8 00 00 FF EF FE 00 0D 00   Length = 0 BitCount = 0 ID = 578
   1.105070 1  29c             Rx   d 8 00 00 00 00 FF FF 00 00   Length = 0 BitCount = 0 ID = 668
   1.105070 1  354             Rx   d 8 00 00 00 00 00 00 00 00   Length = 0 BitCount = 0 ID = 852
   1.105070 1  5df             Rx   d 3 00 95 00   Length = 0 BitCount = 0 ID = 1503
   1.134825 1  3b7             Rx   d 6 00 00 7F C0 00 C0   Length = 0 BitCount = 0 ID = 951
   1.134825 1  12e             Rx   d 8 CA 80 00 7F F0 FF FF 00   Length = 0 BitCount = 0 ID = 302
   1.134825 1  90              Rx   d 5 FF 00 08 A5 00   Length = 0 BitCount = 0 ID = 144
   1.134825 1  c6              Rx   d 8 80 3D 7F F0 7F E3 B0 C1   Length = 0 BitCount = 0 ID = 198
   1.134825 1  211             Rx   d 8 82 00 FF FF A9 00 00 D0   Length = 0 BitCount = 0 ID = 529
   1.134825 1  29a             Rx   d 8 00 00 00 00 00 00 0C F3   Length = 0 BitCount = 0 ID = 666
   1.134825 1  214             Rx   d 2 00 00   Length = 0 BitCount = 0 ID = 532
   1.134825 1  2b7             Rx   d 5 00 E0 FF FE 00   Length = 0 BitCount = 0 ID = 695
   1.134825 1  392             Rx   d 5 00 00 00 00 00   Length = 0 BitCount = 0 ID = 914
   1.134825 1  668             Rx   d 2 80 00   Length = 0 BitCount = 0 ID = 1640
   1.134825 1  1b0             Rx   d 4 FF 00 FF C0   Length = 0 BitCount = 0 ID = 432
   1.134825 1  657             Rx   d 2 C0 CC   Length = 0 BitCount = 0 ID = 1623
   1.134825 1  12e             Rx   d 8 CA 80 00 7F F0 FF FF 00   Length = 0 BitCount = 0 ID = 302
   1.134825 1  90              Rx   d 5 FF 00 09 E9 00   Length = 0 BitCount = 0 ID = 144
   1.134825 1  c6              Rx   d 8 80 3D 80 10 7F E3 B2 9E   Length = 0 BitCount = 0 ID = 198
   1.134825 1  242             Rx   d 8 00 00 FF EF FE 00 0D 00   Length = 0 BitCount = 0 ID = 578
   1.134825 1  29c             Rx   d 8 00 00 00 00 FF FF 00 00   Length = 0 BitCount = 0 ID = 668
   1.134825 1  352             Rx   d 4 5C 00 00 FF   Length = 0 BitCount = 0 ID = 850
   1.134825 1  4ac             Rx   d 5 83 75 2A 00 80   Length = 0 BitCount = 0 ID = 1196
   1.134825 1  45c             Rx   d 6 00 00 00 00 FF E0   Length = 0 BitCount = 0 ID = 1116
   1.134825 1  12e             Rx   d 8 CA 80 00 7F F0 FF FF 00   Length = 0 BitCount = 0 ID = 302
   1.134825 1  90              Rx   d 5 FF 00 0A 3D 00   Length = 0 BitCount = 0 ID = 144
   1.134825 1  c6              Rx   d 8 80 3D 80 00 7F E3 B4 AC   Length = 0 BitCount = 0 ID = 198
   1.134825 1  211             Rx   d 8 82 00 FF FF A9 00 00 D0   Length = 0 BitCount = 0 ID = 529
   1.134825 1  29a             Rx   d 8 00 00 00 00 00 00 0D F2   Length = 0 BitCount = 0 ID = 666
   1.134825 1  214             Rx   d 2 00 00   Length = 0 BitCount = 0 ID = 532
   1.134825 1  2b7             Rx   d 5 00 E0 FF FE 00   Length = 0 BitCount = 0 ID = 695
   1.134825 1  218             Rx   d 1 98   Length = 0 BitCount = 0 ID = 536
   1.134825 1  4fa             Rx   d 2 08 00   Length = 0 BitCount = 0 ID = 1274
   1.134825 1  671             Rx   d 2 02 00   Length = 0 BitCount = 0 ID = 1649
   1.134825 1  1b0             Rx   d 4 FF 00 FF C0   Length = 0 BitCount = 0 ID = 432
   1.149874 1  12e             Rx   d 8 CA 80 00 7F F0 FF FF 00   Length = 0 BitCount = 0 ID = 302
   1.149874 1  90              Rx   d 5 FF 00 0B 71 00   Length = 0 BitCount = 0 ID = 144
   1.149874 1  c6              Rx   d 8 80 3D 7F F8 7F E3 B6 B3   Length = 0 BitCount = 0 ID = 198
   1.149874 1  242             Rx   d 8 00 00 FF EF FE 00 0D 00   Length = 0 BitCount = 0 ID = 578
   1.149874 1  29c             Rx   d 8 00 00 00 00 FF FF 00 00   Length = 0 BitCount = 0 ID = 668
   1.149874 1  354             Rx   d 8 00 00 00 00 00 00 00 00   Length = 0 BitCount = 0 ID = 852
   1.154952 1  12e             Rx   d 8 CA 80 00 7F F0 FF FF 00   Length = 0 BitCount = 0 ID = 302
   1.154952 1  90              Rx   d 5 FF 00 0C 88 00   Length = 0 BitCount = 0 ID = 144
   1.154952 1  c6              Rx   d 8 80 3D 80 08 7F E3 B8 A0   Length = 0 BitCount = 0 ID = 198
   1.154952 1  211             Rx   d 8 82 00 FF FF A9 00 00 D0   Length = 0 BitCount = 0 ID = 529
   1.164673 1  29a             Rx   d 8 00 00 00 00 00 00 0E F1   Length = 0 BitCount = 0 ID = 666
   1.164673 1  214             Rx   d 2 00 00   Length = 0 BitCount = 0 ID = 532
   1.164673 1  2b7             Rx   d 5 00 E0 FF FE 00   Length = 0 BitCount = 0 ID = 695
   1.164673 1  5d7             Rx   d 7 00 00 08 12 52 00 C0   Length = 0 BitCount = 0 ID = 1495
   1.164673 1  1b0             Rx   d 4 FF 00 FF C0   Length = 0 BitCount = 0 ID = 432
   1.164673 1  392             Rx   d 5 00 00 00 00 00   Length = 0 BitCount = 0 ID = 914
   1.164673 1  90              Rx   d 5 FF 00 0D C4 00   Length = 0 BitCount = 0 ID = 144
   1.164673 1  c6              Rx   d 8 80 3D 7F F8 7F E3 BA AF   Length = 0 BitCount = 0 ID = 198
   1.164673 1  12e             Rx   d 8 CA 80 00 7F F0 FF FF 00   Length = 0 BitCount = 0 ID = 302
   1.164673 1  242             Rx   d 8 00 00 FF EF FE 00 0D 00   Length = 0 BitCount = 0 ID = 578
   1.164673 1  29c             Rx   d 8 00 00 00 00 FF FF 00 00   Length = 0 BitCount = 0 ID = 668
   1.164673 1  352             Rx   d 4 5C 00 00 FF   Length = 0 BitCount = 0 ID = 850
   1.174611 1  12e             Rx   d 8 CA 80 00 7F F0 FF FF 00   Length = 0 BitCount = 0 ID = 302
   1.174611 1  90              Rx   d 5 FF 00 0E 10 00   Length = 0 BitCount = 0 ID = 144
   1.174611 1  c6              Rx   d 8 80 3D 80 08 7F E3 BC 9C   Length = 0 BitCount = 0 ID = 198
   1.174611 1  211             Rx   d 8 82 00 FF FF A9 00 00 D0   Length = 0 BitCount = 0 ID = 529
   1.174611 1  29a             Rx   d 8 00 00 00 00 00 00 0F F0   Length = 0 BitCount = 0 ID = 666
   1.174611 1  214             Rx   d 2 00 00   Length = 0 BitCount = 0 ID = 532
   1.174611 1  2b7             Rx   d 5 00 E0 FF FE 00   Length = 0 BitCount = 0 ID = 695
   1.174611 1  666             Rx   d 4 34 80 00 08   Length = 0 BitCount = 0 ID = 1638
   1.174611 1  350             Rx   d 8 C3 2F 3A F0 18 10 A4 89   Length = 0 BitCount = 0 ID = 848
   1.174611 1  1b0             Rx   d 4 FF 00 FF C0   Length = 0 BitCount = 0 ID = 432
   1.174611 1  4de             Rx   d 3 C0 00 00   Length = 0 BitCount = 0 ID = 1246
   1.174611 1  55d             Rx   d 8 00 FC 50 C0 90 80 00 00   Length = 0 BitCount = 0 ID = 1373
   1.199653 1  12e             Rx   d 8 CB 80 00 7F F0 FF FF 00   Length = 0 BitCount = 0 ID = 302
   1.199653 1  90              Rx   d 5 FF 00 0F 5C 00   Length = 0 BitCount = 0 ID = 144
   1.199653 1  c6              Rx   d 8 80 3D 80 00 7F E3 BE A2   Length = 0 BitCount = 0 ID = 198
   1.199653 1  242             Rx   d 8 00 00 FF EF FE 00 0D 00   Length = 0 BitCount = 0 ID = 578
   1.199653 1  29c             Rx   d 8 00 00 00 00 FF FF 00 00   Length = 0 BitCount = 0 ID = 668
   1.199653 1  354             Rx   d 8 00 00 00 00 00 00 00 00   Length = 0 BitCount = 0 ID = 852
   1.199653 1  4f8             Rx   d 8 54 C0 00 00 00 00 00 00   Length = 0 BitCount = 0 ID = 1272
   1.199653 1  12e             Rx   d 8 CB 80 00 7F F0 FF FF 00   Length = 0 BitCount = 0 ID = 302
   1.199653 1  90              Rx   d 5 FF 00 00 FF 00   Length = 0 BitCount = 0 ID = 144
   1.199653 1  c6              Rx   d 8 80 3D 7F F8 7F E3 A0 C9   Length = 0 BitCount = 0 ID = 198
   1.199653 1  211             Rx   d 8 82 00 FF FF A9 00 00 D0   Length = 0 BitCount = 0 ID = 529
   1.199653 1  29a             Rx   d 8 00 00 00 00 00 00 00 FF   Length = 0 BitCount = 0 ID = 666
   1.199653 1  214             Rx   d 2 00 00   Length = 0 BitCount = 0 ID = 532
   1.199653 1  2b7             Rx   d 5 00 E0 FF FE 00   Length = 0 BitCount = 0 ID = 695
   1.199653 1  1b0             Rx   d 4 FF 00 FF C0   Length = 0 BitCount = 0 ID = 432
   1.199653 1  5de             Rx   d 8 00 00 00 00 00 00 00 02   Length = 0 BitCount = 0 ID = 1502
   1.199653 1  12e             Rx   d 8 CA 80 00 7F F0 FF FF 00   Length = 0 BitCount = 0 ID = 302
   1.199653 1  90              Rx   d 5 FF 00 01 B3 00   Length = 0 BitCount = 0 ID = 144
   1.204690 1  c6              Rx   d 8 80 3D 80 08 7F E3 A2 B6   Length = 0 BitCount = 0 ID = 198
   1.204690 1  242             Rx   d 8 00 00 FF EF FE 00 0D 00   Length = 0 BitCount = 0 ID = 578
   1.204690 1  29c             Rx   d 8 00 00 00 00 FF FF 00 00   Length = 0 BitCount = 0 ID = 668
   1.204690 1  352             Rx   d 4 5C 00 00 FF   Length = 0 BitCount = 0 ID = 850
   1.204690 1  5df             Rx   d 3 00 95 00   Length = 0 BitCount = 0 ID = 1503
   1.224620 1  3b7             Rx   d 6 00 00 7F C0 00 C0   Length = 0 BitCount = 0 ID = 951
   1.224620 1  12e             Rx   d 8 CA 80 00 7F F0 FF FF 00   Length = 0 BitCount = 0 ID = 302
   1.224620 1  90              Rx   d 5 FF 00 02 67 00   Length = 0 BitCount = 0 ID = 144
   1.224620 1  c6              Rx   d 8 80 3D 7F F0 7F E3 A4 CD   Length = 0 BitCount = 0 ID = 198
   1.224620 1  211             Rx   d 8 82 00 FF FF A9 00 00 D0   Length = 0 BitCount = 0 ID = 529
   1.224620 1  29a             Rx   d 8 00 00 00 00 00 00 01 FE   Length = 0 BitCount = 0 ID = 666
   1.224620 1  214             Rx   d 2 00 00   Length = 0 BitCount = 0 ID = 532
   1.224620 1  2b7             Rx   d 5 00 E0 FF FE 00   Length = 0 BitCount = 0 ID = 695
   1.224620 1  392             Rx   d 5 00 00 00 00 00   Length = 0 BitCount = 0 ID = 914
   1.224620 1  668             Rx   d 2 80 00   Length = 0 BitCount = 0 ID = 1640
   1.224620 1  699             Rx   d 8 00 00 02 00 BF 00 00 00   Length = 0 BitCount = 0 ID = 1689
   1.224620 1  1b0             Rx   d 4 FF 00 FF C0   Length = 0 BitCount = 0 ID = 432
   1.224620 1  657             Rx   d 2 C0 CC   Length = 0 BitCount = 0 ID = 1623
   1.224620 1  69f             Rx   d 4 06 50 85 9F   Length = 0 BitCount = 0 ID = 1695
   1.224620 1  12e             Rx   d 8 CA 80 00 7F F0 FF FF 00   Length = 0 BitCount = 0 ID = 302
   1.224620 1  90              Rx   d 5 FF 00 03 2B 00   Length = 0 BitCount = 0 ID = 144
   1.224620 1  c6              Rx   d 8 80 3D 80 08 7F E3 A6 B2   Length = 0 BitCount = 0 ID = 198
   1.224620 1  242             Rx   d 8 00 00 FF EF FE 00 0D 00   Length = 0 BitCount = 0 ID = 578
   1.224620 1  29c             Rx   d 8 00 00 00 00 FF FF 00 00   Length = 0 BitCount = 0 ID = 668
   1.224620 1  354             Rx   d 8 00 00 00 00 00 00 00 00   Length = 0 BitCount = 0 ID = 852
   1.224620 1  4ac             Rx   d 5 83 75 2A 00 80   Length = 0 BitCount = 0 ID = 1196
   1.224620 1  45c             Rx   d 6 00 00 00 00 FF E0   Length = 0 BitCount = 0 ID = 1116
   1.239597 1  211             Rx   d 8 82 00 FF FF A9 00 00 D0   Length = 0 BitCount = 0 ID = 529
   1.239597 1  90              Rx   d 5 FF 00 04 D2 00   Length = 0 BitCount = 0 ID = 144
   1.239597 1  c6              Rx   d 8 80 3D 80 08 7F E3 A8 B0   Length = 0 BitCount = 0 ID = 198
   1.239597 1  12e             Rx   d 8 CA 80 00 7F F0 FF FF 00   Length = 0 BitCount = 0 ID = 302
   1.239597 1  214             Rx   d 2 00 00   Length = 0 BitCount = 0 ID = 532
   1.239597 1  29a             Rx   d 8 00 00 00 00 00 00 02 FD   Length = 0 BitCount = 0 ID = 666
   1.239597 1  218             Rx   d 1 98   Length = 0 BitCount = 0 ID = 536
   1.239597 1  2b7             Rx   d 5 00 E0 FF FE 00   Length = 0 BitCount = 0 ID = 695
   1.239597 1  4fa             Rx   d 2 08 00   Length = 0 BitCount = 0 ID = 1274
   1.239597 1  671             Rx   d 2 02 00   Length = 0 BitCount = 0 ID = 1649
   1.239597 1  1b0             Rx   d 4 FF 00 FF C0   Length = 0 BitCount = 0 ID = 432
   1.244630 1  12e             Rx   d 8 CA 80 00 7F F0 FF FF 00   Length = 0 BitCount = 0 ID = 302
   1.244630 1  90              Rx   d 5 FF 00 05 9E 00   Length = 0 BitCount = 0 ID = 144
   1.244630 1  c6              Rx   d 8 80 3D 7F F8 7F E3 AA BF   Length = 0 BitCount = 0 ID = 198
   1.244630 1  242             Rx   d 8 00 00 FF FF FF FF FD 00   Length = 0 BitCount = 0 ID = 578
   1.244630 1  29c             Rx   d 8 00 00 00 00 FF FF 00 00   Length = 0 BitCount = 0 ID = 668
   1.244630 1  352             Rx   d 4 5C 00 00 FF   Length = 0 BitCount = 0 ID = 850
   1.259690 1  12e             Rx   d 8 CA 80 00 7F F0 FF FF 00   Length = 0 BitCount = 0 ID = 302
   1.259690 1  90              Rx   d 5 FF 00 06 4A 00   Length = 0 BitCount = 0 ID = 144
   1.259690 1  c6              Rx   d 8 80 3D 80 08 7F E3 AC AC   Length = 0 BitCount = 0 ID = 198
   1.259690 1  211             Rx   d 8 82 00 FF FF A9 00 00 D0   Length = 0 BitCount = 0 ID = 529
   1.259690 1  29a             Rx   d 8 00 00 00 00 00 00 03 FC   Length = 0 BitCount = 0 ID = 666
   1.259690 1  214             Rx   d 2 00 00   Length = 0 BitCount = 0 ID = 532
   1.259690 1  2b7             Rx   d 5 00 E0 FF FE 00   Length = 0 BitCount = 0 ID = 695
   1.259690 1  5d7             Rx   d 7 00 00 08 12 52 00 C0   Length = 0 BitCount = 0 ID = 1495
   1.259690 1  1b0             Rx   d 4 FF 00 FF C0   Length = 0 BitCount = 0 ID = 432
   1.265160 1  12e             Rx   d 8 CA 80 00 7F F0 FF FF 00   Length = 0 BitCount = 0 ID = 302
   1.265160 1  90              Rx   d 5 FF 00 07 06 00   Length = 0 BitCount = 0 ID = 144
   1.265160 1  c6              Rx   d 8 80 3D 7F F8 7F E3 AE BB   Length = 0 BitCount = 0 ID = 198
   1.265160 1  242             Rx   d 8 12 80 FF FF FF FF FD 00   Length = 0 BitCount = 0 ID = 578
   1.265160 1  29c             Rx   d 8 00 00 00 00 FF FF 00 00   Length = 0 BitCount = 0 ID = 668
   1.265160 1  354             Rx   d 8 00 00 00 00 00 00 00 00   Length = 0 BitCount = 0 ID = 852
   1.265160 1  392             Rx   d 5 00 00 00 00 00   Length = 0 BitCount = 0 ID = 914
   1.265160 1  350             Rx   d 8 C2 2F 3A F0 18 10 A4 89   Length = 0 BitCount = 0 ID = 848
   1.284632 1  12e             Rx   d 8 CA 80 00 7F F0 FF FF 00   Length = 0 BitCount = 0 ID = 302
   1.284632 1  90              Rx   d 5 FF 00 08 A5 00   Length = 0 BitCount = 0 ID = 144
   1.284632 1  c6              Rx   d 8 80 3D 80 08 7F E3 B0 A8   Length = 0 BitCount = 0 ID = 198
   1.284632 1  211             Rx   d 8 82 00 FF FF A9 00 00 D0   Length = 0 BitCount = 0 ID = 529
   1.284632 1  29a             Rx   d 8 00 00 00 00 00 00 04 FB   Length = 0 BitCount = 0 ID = 666
   1.284632 1  214             Rx   d 2 00 00   Length = 0 BitCount = 0 ID = 532
   1.284632 1  2b7             Rx   d 5 00 E0 FF FE 00   Length = 0 BitCount = 0 ID = 695
   1.284632 1  666             Rx   d 4 34 80 00 08   Length = 0 BitCount = 0 ID = 1638
   1.284632 1  350             Rx   d 8 C2 2F 3A F0 18 10 A4 89   Length = 0 BitCount = 0 ID = 848
   1.284632 1  1b0             Rx   d 4 FF 00 FF C0   Length = 0 BitCount = 0 ID = 432
   1.284632 1  4de             Rx   d 3 C0 00 00   Length = 0 BitCount = 0 ID = 1246
   1.284632 1  55d             Rx   d 8 00 FC 50 C0 90 80 00 00   Length = 0 BitCount = 0 ID = 1373
   1.284632 1  12e             Rx   d 8 C9 80 00 7F F0 FF FF 00   Length = 0 BitCount = 0 ID = 302
   1.284632 1  90              Rx   d 5 FF 00 09 E9 00   Length = 0 BitCount = 0 ID = 144
   1.284632 1  c6              Rx   d 8 80 3D 80 00 7F E3 B2 AE   Length = 0 BitCount = 0 ID = 198
   1.284632 1  242             Rx   d 8 12 80 FF FF FF FF FD 00   Length = 0 BitCount = 0 ID = 578
   1.284632 1  29c             Rx   d 8 00 00 00 00 FF FF 00 00   Length = 0 BitCount = 0 ID = 668
   1.284632 1  352             Rx   d 4 5C 00 00 FF   Length = 0 BitCount = 0 ID = 850
   1.294756 1  4f8             Rx   d 8 54 C0 00 00 00 00 00 00   Length = 0 BitCount = 0 ID = 1272
   1.294756 1  12e             Rx   d 8 C9 80 00 7F F0 FF FF 00   Length = 0 BitCount = 0 ID = 302
   1.294756 1  90              Rx   d 5 FF 00 0A 3D 00   Length = 0 BitCount = 0 ID = 144
   1.294756 1  c6              Rx   d 8 80 3D 80 00 7F E3 B4 AC   Length = 0 BitCount = 0 ID = 198
   1.294756 1  211             Rx   d 8 82 00 FF FF A9 00 00 D0   Length = 0 BitCount = 0 ID = 529
   1.294756 1  29a             Rx   d 8 00 00 00 00 00 00 05 FA   Length = 0 BitCount = 0 ID = 666
   1.294756 1  214             Rx   d 2 00 00   Length = 0 BitCount = 0 ID = 532
   1.294756 1  2b7             Rx   d 5 00 E0 FF FE 00   Length = 0 BitCount = 0 ID = 695
   1.294756 1  1b0             Rx   d 4 FF 00 FF C0   Length = 0 BitCount = 0 ID = 432
   1.294756 1  5de             Rx   d 8 00 00 00 00 00 00 00 02   Length = 0 BitCount = 0 ID = 1502
   1.324186 1  12e             Rx   d 8 C9 80 00 7F F0 FF FF 00   Length = 0 BitCount = 0 ID = 302
   1.324186 1  90              Rx   d 5 FF 00 0B 71 00   Length = 0 BitCount = 0 ID = 144
   1.324186 1  c6              Rx   d 8 80 3D 80 00 7F E3 B6 AA   Length = 0 BitCount = 0 ID = 198
   1.324186 1  242             Rx   d 8 12 80 FF FF FF FF FD 00   Length = 0 BitCount = 0 ID = 578
   1.324186 1  29c             Rx   d 8 00 00 00 00 FF FF 00 00   Length = 0 BitCount = 0 ID = 668
   1.324186 1  354             Rx   d 8 00 00 00 00 00 00 00 00   Length = 0 BitCount = 0 ID = 852
   1.324186 1  5df             Rx   d 3 00 95 00   Length = 0 BitCount = 0 ID = 1503
   1.324186 1  3b7             Rx   d 6 00 00 7F C0 00 C0   Length = 0 BitCount = 0 ID = 951
   1.324186 1  12e             Rx   d 8 C9 80 00 7F F0 FF FF 00   Length = 0 BitCount = 0 ID = 302
   1.324186 1  90              Rx   d 5 FF 00 0C 88 00   Length = 0 BitCount = 0 ID = 144
   1.324186 1  c6              Rx   d 8 80 3D 7F F8 7F E3 B8 B1   Length = 0 BitCount = 0 ID = 198
   1.324186 1  211             Rx   d 8 82 00 FF FF A9 00 00 D0   Length = 0 BitCount = 0 ID = 529
   1.324186 1  29a             Rx   d 8 00 00 00 00 00 00 06 F9   Length = 0 BitCount = 0 ID = 666
   1.324186 1  214             Rx   d 2 00 00   Length = 0 BitCount = 0 ID = 532
   1.324186 1  2b7             Rx   d 5 00 E0 FF FE 00   Length = 0 BitCount = 0 ID = 695
   1.324186 1  392             Rx   d 5 00 00 00 00 00   Length = 0 BitCount = 0 ID = 914
   1.324186 1  668             Rx   d 2 80 00   Length = 0 BitCount = 0 ID = 1640
   1.324186 1  1b0             Rx   d 4 FF 00 FF C0   Length = 0 BitCount = 0 ID = 432
   1.324186 1  657             Rx   d 2 C0 CC   Length = 0 BitCount = 0 ID = 1623
   1.324186 1  12e             Rx   d 8 CA 80 02 7F F0 FF FF 00   Length = 0 BitCount = 0 ID = 302
   1.324186 1  90              Rx   d 5 FF 00 0D C4 00   Length = 0 BitCount = 0 ID = 144
   1.324186 1  c6              Rx   d 8 80 3D 80 08 7F E3 BA 9E   Length = 0 BitCount = 0 ID = 198
   1.324186 1  242             Rx   d 8 12 80 FF FF FF FF FD 00   Length = 0 BitCount = 0 ID = 578
   1.324186 1  29c             Rx   d 8 00 00 00 00 FF FF 00 00   Length = 0 BitCount = 0 ID = 668
   1.324186 1  352             Rx   d 4 5C 00 00 FF   Length = 0 BitCount = 0 ID = 850
   1.324186 1  4ac             Rx   d 5 83 75 2A 00 80   Length = 0 BitCount = 0 ID = 1196
   1.324186 1  45c             Rx   d 6 00 00 00 00 FF E0   Length = 0 BitCount = 0 ID = 1116
   1.355379 1  12e             Rx   d 8 CA 80 02 7F F0 FF FF 00   Length = 0 BitCount = 0 ID = 302
   1.355379 1  90              Rx   d 5 FF 00 0E 10 00   Length = 0 BitCount = 0 ID = 144
   1.355379 1  c6              Rx   d 8 80 3D 7F F8 7F E3 BC AD   Length = 0 BitCount = 0 ID = 198
   1.355379 1  211             Rx   d 8 82 00 FF FF A9 00 00 D0   Length = 0 BitCount = 0 ID = 529
   1.355379 1  29a             Rx   d 8 00 00 00 00 00 00 07 F8   Length = 0 BitCount = 0 ID = 666
   1.355379 1  214             Rx   d 2 00 00   Length = 0 BitCount = 0 ID = 532
   1.355379 1  2b7             Rx   d 5 00 E0 FF FE 00   Length = 0 BitCount = 0 ID = 695
   1.355379 1  218             Rx   d 1 98   Length = 0 BitCount = 0 ID = 536
   1.355379 1  4fa             Rx   d 2 08 00   Length = 0 BitCount = 0 ID = 1274
   1.355379 1  671             Rx   d 2 02 00   Length = 0 BitCount = 0 ID = 1649
   1.355379 1  1b0             Rx   d 4 FF 00 FF C0   Length = 0 BitCount = 0 ID = 432
   1.355379 1  12e             Rx   d 8 CB 80 00 7F F0 FF FF 00   Length = 0 BitCount = 0 ID = 302
   1.355379 1  90              Rx   d 5 FF 00 0F 5C 00   Length = 0 BitCount = 0 ID = 144
   1.355379 1  c6              Rx   d 8 80 3D 80 00 7F E3 BE A2   Length = 0 BitCount = 0 ID = 198
   1.355379 1  242             Rx   d 8 12 80 FF FF FF FF FD 00   Length = 0 BitCount = 0 ID = 578
   1.355379 1  29c             Rx   d 8 00 00 00 00 FF FF 00 00   Length = 0 BitCount = 0 ID = 668
   1.355379 1  354             Rx   d 8 00 00 00 00 00 00 00 00   Length = 0 BitCount = 0 ID = 852
   1.355379 1  12e             Rx   d 8 CB 80 00 7F F0 FF FF 00   Length = 0 BitCount = 0 ID = 302
   1.355379 1  90              Rx   d 5 FF 00 00 FF 00   Length = 0 BitCount = 0 ID = 144
   1.355379 1  c6              Rx   d 8 80 3D 80 00 7F E3 A0 C0   Length = 0 BitCount = 0 ID = 198
   1.355379 1  211             Rx   d 8 82 00 FF FF A9 00 00 D0   Length = 0 BitCount = 0 ID = 529
   1.355379 1  29a             Rx   d 8 00 00 00 00 00 00 08 F7   Length = 0 BitCount = 0 ID = 666
   1.355379 1  214             Rx   d 2 00 00   Length = 0 BitCount = 0 ID = 532
   1.355379 1  2b7             Rx   d 5 00 E0 FF FE 00   Length = 0 BitCount = 0 ID = 695
   1.355379 1  5d7             Rx   d 7 00 00 08 12 52 00 C0   Length = 0 BitCount = 0 ID = 1495
   1.355379 1  1b0             Rx   d 4 FF 00 FF C0   Length = 0 BitCount = 0 ID = 432
   1.375013 1  12e             Rx   d 8 CA 80 01 7F F0 FF FF 00   Length = 0 BitCount = 0 ID = 302
   1.375013 1  90              Rx   d 5 FF 00 01 B3 00   Length = 0 BitCount = 0 ID = 144
   1.375013 1  c6              Rx   d 8 80 3D 80 08 7F E3 A2 B6   Length = 0 BitCount = 0 ID = 198
   1.375013 1  242             Rx   d 8 12 80 FF FF FF FF FD 00   Length = 0 BitCount = 0 ID = 578
   1.375013 1  29c             Rx   d 8 00 00 00 00 FF FF 00 00   Length = 0 BitCount = 0 ID = 668
   1.375013 1  352             Rx   d 4 5C 00 00 FF   Length = 0 BitCount = 0 ID = 850
   1.375013 1  392             Rx   d 5 00 00 00 00 00   Length = 0 BitCount = 0 ID = 914
   1.375013 1  12e             Rx   d 8 CA 80 01 7F F0 FF FF 00   Length = 0 BitCount = 0 ID = 302
   1.375013 1  90              Rx   d 5 FF 00 02 67 00   Length = 0 BitCount = 0 ID = 144
   1.375013 1  c6              Rx   d 8 80 3D 80 00 7F E3 A4 BC   Length = 0 BitCount = 0 ID = 198
   1.375013 1  211             Rx   d 8 82 00 FF FF A9 00 00 D0   Length = 0 BitCount = 0 ID = 529
   1.375013 1  29a             Rx   d 8 00 00 00 00 00 00 09 F6   Length = 0 BitCount = 0 ID = 666
   1.375013 1  214             Rx   d 2 00 00   Length = 0 BitCount = 0 ID = 532
   1.375013 1  2b7             Rx   d 5 00 E0 FF FE 00   Length = 0 BitCount = 0 ID = 695
